Sample in Buffer,Sample in Window,TRIGGER,pynq_bd_i/xadc_wiz_0_drdy_out,pynq_bd_i/dpp_counter_0_fifo_o[31:0],pynq_bd_i/dpp_counter_0_y[31:0]
Radix - UNSIGNED,UNSIGNED,UNSIGNED,HEX,SIGNED,SIGNED
0,0,0,0,0,24033
1,1,0,0,0,24033
2,2,0,0,0,24033
3,3,0,0,0,24033
4,4,0,0,0,24033
5,5,0,0,0,24033
6,6,0,0,0,24033
7,7,0,0,0,24033
8,8,0,0,0,24033
9,9,0,0,0,24033
10,10,0,0,0,24033
11,11,0,0,0,24033
12,12,0,0,0,24033
13,13,0,0,0,24033
14,14,0,0,0,24033
15,15,0,0,0,24033
16,16,0,0,0,24033
17,17,0,0,0,24033
18,18,0,0,0,24033
19,19,0,0,0,24033
20,20,0,0,0,24033
21,21,0,0,0,24033
22,22,0,0,0,24033
23,23,0,0,0,24033
24,24,0,0,0,24033
25,25,0,0,0,24033
26,26,0,0,0,24033
27,27,0,0,0,24033
28,28,0,0,0,24033
29,29,0,0,0,24033
30,30,0,0,0,24033
31,31,0,0,0,24033
32,32,0,0,0,24033
33,33,0,0,0,24033
34,34,0,0,0,24033
35,35,0,0,0,24033
36,36,0,0,0,24033
37,37,0,0,0,24033
38,38,0,0,0,24033
39,39,0,0,0,24033
40,40,0,0,0,24033
41,41,0,0,0,24033
42,42,0,0,0,24033
43,43,0,0,0,24033
44,44,0,0,0,24033
45,45,0,0,0,24033
46,46,0,0,0,24033
47,47,0,0,0,24033
48,48,0,0,0,24033
49,49,0,0,0,24033
50,50,0,0,0,24033
51,51,0,0,0,24033
52,52,0,0,0,24033
53,53,0,0,0,24033
54,54,0,0,0,24033
55,55,0,0,0,24033
56,56,0,0,0,24033
57,57,0,0,0,24033
58,58,0,0,0,24033
59,59,0,0,0,24033
60,60,0,0,0,24033
61,61,0,0,0,24033
62,62,0,0,0,24033
63,63,0,0,0,24033
64,64,0,0,0,24033
65,65,0,0,0,24033
66,66,0,0,0,24033
67,67,0,0,0,24033
68,68,0,0,0,24033
69,69,0,0,0,24033
70,70,0,0,0,24033
71,71,0,0,0,24033
72,72,0,0,0,24033
73,73,0,0,0,24033
74,74,0,0,0,24033
75,75,0,0,0,24033
76,76,0,0,0,24033
77,77,0,0,0,24033
78,78,0,0,0,24033
79,79,0,0,0,24033
80,80,0,0,0,24033
81,81,0,0,0,24033
82,82,0,0,0,24033
83,83,0,0,0,24033
84,84,0,1,0,24033
85,85,0,0,0,24033
86,86,0,0,0,24033
87,87,0,0,0,24033
88,88,0,0,0,24033
89,89,0,0,0,24033
90,90,0,0,0,24033
91,91,0,0,0,24033
92,92,0,0,0,24033
93,93,0,0,0,24033
94,94,0,0,0,24033
95,95,0,0,0,24033
96,96,0,0,0,24033
97,97,0,0,0,24033
98,98,0,0,0,24033
99,99,0,0,0,24033
100,100,0,0,0,24033
101,101,0,0,0,24033
102,102,0,0,0,24033
103,103,0,0,0,24033
104,104,0,0,0,24033
105,105,0,0,0,24033
106,106,0,0,0,24033
107,107,0,0,0,24033
108,108,0,0,0,24033
109,109,0,0,0,24033
110,110,0,0,0,24033
111,111,0,0,0,24033
112,112,0,0,0,24033
113,113,0,0,0,24033
114,114,0,0,0,24033
115,115,0,0,0,24033
116,116,0,0,0,24033
117,117,0,0,0,24033
118,118,0,0,0,24033
119,119,0,0,0,24033
120,120,0,0,0,24033
121,121,0,0,0,24033
122,122,0,0,0,24033
123,123,0,0,0,24033
124,124,0,0,0,24033
125,125,0,0,0,24033
126,126,0,0,0,24033
127,127,0,0,0,24033
128,128,0,0,0,24033
129,129,0,0,0,24033
130,130,0,0,0,24033
131,131,0,0,0,24033
132,132,0,0,0,24033
133,133,0,0,0,24033
134,134,0,0,0,24033
135,135,0,0,0,24033
136,136,0,0,0,24033
137,137,0,0,0,24033
138,138,0,0,0,24033
139,139,0,0,0,24033
140,140,0,0,0,24033
141,141,0,0,0,24033
142,142,0,0,0,24033
143,143,0,0,0,24033
144,144,0,0,0,24033
145,145,0,0,0,24033
146,146,0,0,0,24033
147,147,0,0,0,24033
148,148,0,0,0,24033
149,149,0,0,0,24033
150,150,0,0,0,24033
151,151,0,0,0,24033
152,152,0,0,0,24033
153,153,0,0,0,24033
154,154,0,0,0,24033
155,155,0,0,0,24033
156,156,0,0,0,24033
157,157,0,0,0,24033
158,158,0,0,0,24033
159,159,0,0,0,24033
160,160,0,0,0,24033
161,161,0,0,0,24033
162,162,0,0,0,24033
163,163,0,0,0,24033
164,164,0,0,0,24033
165,165,0,0,0,24033
166,166,0,0,0,24033
167,167,0,0,0,24033
168,168,0,0,0,24033
169,169,0,0,0,24033
170,170,0,0,0,24033
171,171,0,0,0,24033
172,172,0,0,0,24033
173,173,0,0,0,24033
174,174,0,0,0,24033
175,175,0,0,0,24033
176,176,0,0,0,24033
177,177,0,0,0,24033
178,178,0,0,0,24033
179,179,0,0,0,24033
180,180,0,0,0,24033
181,181,0,0,0,24033
182,182,0,0,0,24033
183,183,0,0,0,24033
184,184,0,0,0,24033
185,185,0,0,0,24033
186,186,0,0,0,24033
187,187,0,0,0,24033
188,188,0,0,0,24033
189,189,0,0,0,24033
190,190,0,0,0,24033
191,191,0,0,0,24033
192,192,0,0,0,24033
193,193,0,0,0,24033
194,194,0,0,0,24033
195,195,0,0,0,24033
196,196,0,0,0,24033
197,197,0,0,0,24033
198,198,0,0,0,24033
199,199,0,0,0,24033
200,200,0,0,0,24033
201,201,0,0,0,24033
202,202,0,0,0,24033
203,203,0,0,0,24033
204,204,0,0,0,24033
205,205,0,0,0,24033
206,206,0,0,0,24033
207,207,0,0,0,24033
208,208,0,0,0,24033
209,209,0,0,0,24033
210,210,0,0,0,24033
211,211,0,0,0,24033
212,212,0,0,0,24033
213,213,0,0,0,24033
214,214,0,0,0,24033
215,215,0,0,0,24033
216,216,0,0,0,24033
217,217,0,0,0,24033
218,218,0,0,0,24033
219,219,0,0,0,24033
220,220,0,0,0,24033
221,221,0,0,0,24033
222,222,0,0,0,24033
223,223,0,0,0,24033
224,224,0,0,0,24033
225,225,0,0,0,24033
226,226,0,0,0,24033
227,227,0,1,0,24033
228,228,0,0,0,24033
229,229,0,0,0,24033
230,230,0,0,0,24033
231,231,0,0,0,24033
232,232,0,0,0,24033
233,233,0,0,0,24033
234,234,0,0,0,24033
235,235,0,0,0,24033
236,236,0,0,0,24033
237,237,0,0,0,24033
238,238,0,0,0,24033
239,239,0,0,0,24033
240,240,0,0,0,24033
241,241,0,0,0,24033
242,242,0,0,0,24033
243,243,0,0,0,24033
244,244,0,0,0,24033
245,245,0,0,0,24033
246,246,0,0,0,24033
247,247,0,0,0,24033
248,248,0,0,0,24033
249,249,0,0,0,24033
250,250,0,0,0,24033
251,251,0,0,0,24033
252,252,0,0,0,24033
253,253,0,0,0,24033
254,254,0,0,0,24033
255,255,0,0,0,24033
256,256,0,0,0,24033
257,257,0,0,0,24033
258,258,0,0,0,24033
259,259,0,0,0,24033
260,260,0,0,0,24033
261,261,0,0,0,24033
262,262,0,0,0,24033
263,263,0,0,0,24033
264,264,0,0,0,24033
265,265,0,0,0,24033
266,266,0,0,0,24033
267,267,0,0,0,24033
268,268,0,0,0,24033
269,269,0,0,0,24033
270,270,0,0,0,24033
271,271,0,0,0,24033
272,272,0,0,0,24033
273,273,0,0,0,24033
274,274,0,0,0,24033
275,275,0,0,0,24033
276,276,0,0,0,24033
277,277,0,0,0,24033
278,278,0,0,0,24033
279,279,0,0,0,24033
280,280,0,0,0,24033
281,281,0,0,0,24033
282,282,0,0,0,24033
283,283,0,0,0,24033
284,284,0,0,0,24033
285,285,0,0,0,24033
286,286,0,0,0,24033
287,287,0,0,0,24033
288,288,0,0,0,24033
289,289,0,0,0,24033
290,290,0,0,0,24033
291,291,0,0,0,24033
292,292,0,0,0,24033
293,293,0,0,0,24033
294,294,0,0,0,24033
295,295,0,0,0,24033
296,296,0,0,0,24033
297,297,0,0,0,24033
298,298,0,0,0,24033
299,299,0,0,0,24033
300,300,0,0,0,24033
301,301,0,0,0,24033
302,302,0,0,0,24033
303,303,0,0,0,24033
304,304,0,0,0,24033
305,305,0,0,0,24033
306,306,0,0,0,24033
307,307,0,0,0,24033
308,308,0,0,0,24033
309,309,0,0,0,24033
310,310,0,0,0,24033
311,311,0,0,0,24033
312,312,0,0,0,24033
313,313,0,0,0,24033
314,314,0,0,0,24033
315,315,0,0,0,24033
316,316,0,0,0,24033
317,317,0,0,0,24033
318,318,0,0,0,24033
319,319,0,0,0,24033
320,320,0,0,0,24033
321,321,0,0,0,24033
322,322,0,0,0,24033
323,323,0,0,0,24033
324,324,0,0,0,24033
325,325,0,0,0,24033
326,326,0,0,0,24033
327,327,0,0,0,24033
328,328,0,0,0,24033
329,329,0,0,0,24033
330,330,0,0,0,24033
331,331,0,0,0,24033
332,332,0,0,0,24033
333,333,0,0,0,24033
334,334,0,0,0,24033
335,335,0,0,0,24033
336,336,0,0,0,24033
337,337,0,0,0,24033
338,338,0,0,0,24033
339,339,0,0,0,24033
340,340,0,0,0,24033
341,341,0,0,0,24033
342,342,0,0,0,24033
343,343,0,0,0,24033
344,344,0,0,0,24033
345,345,0,0,0,24033
346,346,0,0,0,24033
347,347,0,0,0,24033
348,348,0,0,0,24033
349,349,0,0,0,24033
350,350,0,0,0,24033
351,351,0,0,0,24033
352,352,0,0,0,24033
353,353,0,0,0,24033
354,354,0,0,0,24033
355,355,0,0,0,24033
356,356,0,0,0,24033
357,357,0,0,0,24033
358,358,0,0,0,24033
359,359,0,0,0,24033
360,360,0,0,0,24033
361,361,0,0,0,24033
362,362,0,0,0,24033
363,363,0,0,0,24033
364,364,0,0,0,24033
365,365,0,0,0,24033
366,366,0,0,0,24033
367,367,0,0,0,24033
368,368,0,0,0,24033
369,369,0,1,0,24033
370,370,0,1,0,24033
371,371,0,0,0,24033
372,372,0,0,0,24033
373,373,0,0,0,24033
374,374,0,0,0,24033
375,375,0,0,0,24033
376,376,0,0,0,24033
377,377,0,0,0,24033
378,378,0,0,0,24033
379,379,0,0,0,24033
380,380,0,0,0,24033
381,381,0,0,0,24033
382,382,0,0,0,24033
383,383,0,0,0,24033
384,384,0,0,0,24033
385,385,0,0,0,24033
386,386,0,0,0,24033
387,387,0,0,0,24033
388,388,0,0,0,24033
389,389,0,0,0,24033
390,390,0,0,0,24033
391,391,0,0,0,24033
392,392,0,0,0,24033
393,393,0,0,0,24033
394,394,0,0,0,24033
395,395,0,0,0,24033
396,396,0,0,0,24033
397,397,0,0,0,24033
398,398,0,0,0,24033
399,399,0,0,0,24033
400,400,0,0,0,24033
401,401,0,0,0,24033
402,402,0,0,0,24033
403,403,0,0,0,24033
404,404,0,0,0,24033
405,405,0,0,0,24033
406,406,0,0,0,24033
407,407,0,0,0,24033
408,408,0,0,0,24033
409,409,0,0,0,24033
410,410,0,0,0,24033
411,411,0,0,0,24033
412,412,0,0,0,24033
413,413,0,0,0,24033
414,414,0,0,0,24033
415,415,0,0,0,24033
416,416,0,0,0,24033
417,417,0,0,0,24033
418,418,0,0,0,24033
419,419,0,0,0,24033
420,420,0,0,0,24033
421,421,0,0,0,24033
422,422,0,0,0,24033
423,423,0,0,0,24033
424,424,0,0,0,24033
425,425,0,0,0,24033
426,426,0,0,0,24033
427,427,0,0,0,24033
428,428,0,0,0,24033
429,429,0,0,0,24033
430,430,0,0,0,24033
431,431,0,0,0,24033
432,432,0,0,0,24033
433,433,0,0,0,24033
434,434,0,0,0,24033
435,435,0,0,0,24033
436,436,0,0,0,24033
437,437,0,0,0,24033
438,438,0,0,0,24033
439,439,0,0,0,24033
440,440,0,0,0,24033
441,441,0,0,0,24033
442,442,0,0,0,24033
443,443,0,0,0,24033
444,444,0,0,0,24033
445,445,0,0,0,24033
446,446,0,0,0,24033
447,447,0,0,0,24033
448,448,0,0,0,24033
449,449,0,0,0,24033
450,450,0,0,0,24033
451,451,0,0,0,24033
452,452,0,0,0,24033
453,453,0,0,0,24033
454,454,0,0,0,24033
455,455,0,0,0,24033
456,456,0,0,0,24033
457,457,0,0,0,24033
458,458,0,0,0,24033
459,459,0,0,0,24033
460,460,0,0,0,24033
461,461,0,0,0,24033
462,462,0,0,0,24033
463,463,0,0,0,24033
464,464,0,0,0,24033
465,465,0,0,0,24033
466,466,0,0,0,24033
467,467,0,0,0,24033
468,468,0,0,0,24033
469,469,0,0,0,24033
470,470,0,0,0,24033
471,471,0,0,0,24033
472,472,0,0,0,24033
473,473,0,0,0,24033
474,474,0,0,0,24033
475,475,0,0,0,24033
476,476,0,0,0,24033
477,477,0,0,0,24033
478,478,0,0,0,24033
479,479,0,0,0,24033
480,480,0,0,0,24033
481,481,0,0,0,24033
482,482,0,0,0,24033
483,483,0,0,0,24033
484,484,0,0,0,24033
485,485,0,0,0,24033
486,486,0,0,0,24033
487,487,0,0,0,24033
488,488,0,0,0,24033
489,489,0,0,0,24033
490,490,0,0,0,24033
491,491,0,0,0,24033
492,492,0,0,0,24033
493,493,0,0,0,24033
494,494,0,0,0,24033
495,495,0,0,0,24033
496,496,0,0,0,24033
497,497,0,0,0,24033
498,498,0,0,0,24033
499,499,0,0,0,24033
500,500,0,0,0,24033
501,501,0,0,0,24033
502,502,0,0,0,24033
503,503,0,0,0,24033
504,504,0,0,0,24033
505,505,0,0,0,24033
506,506,0,0,0,24033
507,507,0,0,0,24033
508,508,0,0,0,24033
509,509,0,0,0,24033
510,510,0,0,0,24033
511,511,0,0,0,24033
512,512,1,1,0,24033
513,513,0,1,10,24033
514,514,0,0,10,24033
515,515,0,0,10,24033
516,516,0,0,10,24033
517,517,0,0,10,24033
518,518,0,0,10,24033
519,519,0,0,10,24033
520,520,0,0,10,24033
521,521,0,0,10,24033
522,522,0,0,10,24033
523,523,0,0,10,24033
524,524,0,0,10,24033
525,525,0,0,10,24033
526,526,0,0,10,24033
527,527,0,0,10,24033
528,528,0,0,10,24033
529,529,0,0,10,24033
530,530,0,0,10,24033
531,531,0,0,10,24033
532,532,0,0,10,24033
533,533,0,0,10,24033
534,534,0,0,10,24033
535,535,0,0,10,24033
536,536,0,0,10,24033
537,537,0,0,10,24033
538,538,0,0,10,24033
539,539,0,0,10,24033
540,540,0,0,10,24033
541,541,0,0,10,24033
542,542,0,0,10,24033
543,543,0,0,10,24033
544,544,0,0,10,24033
545,545,0,0,10,24033
546,546,0,0,10,24033
547,547,0,0,10,24033
548,548,0,0,10,24033
549,549,0,0,10,24033
550,550,0,0,10,24033
551,551,0,0,10,24033
552,552,0,0,10,24033
553,553,0,0,10,24033
554,554,0,0,10,24033
555,555,0,0,10,24033
556,556,0,0,10,24033
557,557,0,0,10,24033
558,558,0,0,10,24033
559,559,0,0,10,24033
560,560,0,0,10,24033
561,561,0,0,10,24033
562,562,0,0,10,24033
563,563,0,0,10,24033
564,564,0,0,10,24033
565,565,0,0,10,24033
566,566,0,0,10,24033
567,567,0,0,10,24033
568,568,0,0,10,24033
569,569,0,0,10,24033
570,570,0,0,10,24033
571,571,0,0,10,24033
572,572,0,0,10,24033
573,573,0,0,10,24033
574,574,0,0,10,24033
575,575,0,0,10,24033
576,576,0,0,10,24033
577,577,0,0,10,24033
578,578,0,0,10,24033
579,579,0,0,10,24033
580,580,0,0,10,24033
581,581,0,0,10,24033
582,582,0,0,10,24033
583,583,0,0,10,24033
584,584,0,0,10,24033
585,585,0,0,10,24033
586,586,0,0,10,24033
587,587,0,0,10,24033
588,588,0,0,10,24033
589,589,0,0,10,24033
590,590,0,0,10,24033
591,591,0,0,10,24033
592,592,0,0,10,24033
593,593,0,0,10,24033
594,594,0,0,10,24033
595,595,0,0,10,24033
596,596,0,0,10,24033
597,597,0,0,10,24033
598,598,0,0,10,24033
599,599,0,0,10,24033
600,600,0,0,10,24033
601,601,0,0,10,24033
602,602,0,0,10,24033
603,603,0,0,10,24033
604,604,0,0,10,24033
605,605,0,0,10,24033
606,606,0,0,10,24033
607,607,0,0,10,24033
608,608,0,0,10,24033
609,609,0,0,10,24033
610,610,0,0,10,24033
611,611,0,0,10,24033
612,612,0,0,10,24033
613,613,0,0,10,24033
614,614,0,0,10,24033
615,615,0,0,10,24033
616,616,0,0,10,24033
617,617,0,0,10,24033
618,618,0,0,10,24033
619,619,0,0,10,24033
620,620,0,0,10,24033
621,621,0,0,10,24033
622,622,0,0,10,24033
623,623,0,0,10,24033
624,624,0,0,10,24033
625,625,0,0,10,24033
626,626,0,0,10,24033
627,627,0,0,10,24033
628,628,0,0,10,24033
629,629,0,0,10,24033
630,630,0,0,10,24033
631,631,0,0,10,24033
632,632,0,0,10,24033
633,633,0,0,10,24033
634,634,0,0,10,24033
635,635,0,0,10,24033
636,636,0,0,10,24033
637,637,0,0,10,24033
638,638,0,0,10,24033
639,639,0,0,10,24033
640,640,0,0,10,24033
641,641,0,0,10,24033
642,642,0,0,10,24033
643,643,0,0,10,24033
644,644,0,0,10,24033
645,645,0,0,10,24033
646,646,0,0,10,24033
647,647,0,0,10,24033
648,648,0,0,10,24033
649,649,0,0,10,24033
650,650,0,0,10,24033
651,651,0,0,10,24033
652,652,0,0,10,24033
653,653,0,0,10,24033
654,654,0,0,10,24033
655,655,0,1,0,24033
656,656,0,1,0,24033
657,657,0,0,0,24033
658,658,0,0,0,24033
659,659,0,0,0,24033
660,660,0,0,0,24033
661,661,0,0,0,24033
662,662,0,0,0,24033
663,663,0,0,0,24033
664,664,0,0,0,24033
665,665,0,0,0,24033
666,666,0,0,0,24033
667,667,0,0,0,24033
668,668,0,0,0,24033
669,669,0,0,0,24033
670,670,0,0,0,24033
671,671,0,0,0,24033
672,672,0,0,0,24033
673,673,0,0,0,24033
674,674,0,0,0,24033
675,675,0,0,0,24033
676,676,0,0,0,24033
677,677,0,0,0,24033
678,678,0,0,0,24033
679,679,0,0,0,24033
680,680,0,0,0,24033
681,681,0,0,0,24033
682,682,0,0,0,24033
683,683,0,0,0,24033
684,684,0,0,0,24033
685,685,0,0,0,24033
686,686,0,0,0,24033
687,687,0,0,0,24033
688,688,0,0,0,24033
689,689,0,0,0,24033
690,690,0,0,0,24033
691,691,0,0,0,24033
692,692,0,0,0,24033
693,693,0,0,0,24033
694,694,0,0,0,24033
695,695,0,0,0,24033
696,696,0,0,0,24033
697,697,0,0,0,24033
698,698,0,0,0,24033
699,699,0,0,0,24033
700,700,0,0,0,24033
701,701,0,0,0,24033
702,702,0,0,0,24033
703,703,0,0,0,24033
704,704,0,0,0,24033
705,705,0,0,0,24033
706,706,0,0,0,24033
707,707,0,0,0,24033
708,708,0,0,0,24033
709,709,0,0,0,24033
710,710,0,0,0,24033
711,711,0,0,0,24033
712,712,0,0,0,24033
713,713,0,0,0,24033
714,714,0,0,0,24033
715,715,0,0,0,24033
716,716,0,0,0,24033
717,717,0,0,0,24033
718,718,0,0,0,24033
719,719,0,0,0,24033
720,720,0,0,0,24033
721,721,0,0,0,24033
722,722,0,0,0,24033
723,723,0,0,0,24033
724,724,0,0,0,24033
725,725,0,0,0,24033
726,726,0,0,0,24033
727,727,0,0,0,24033
728,728,0,0,0,24033
729,729,0,0,0,24033
730,730,0,0,0,24033
731,731,0,0,0,24033
732,732,0,0,0,24033
733,733,0,0,0,24033
734,734,0,0,0,24033
735,735,0,0,0,24033
736,736,0,0,0,24033
737,737,0,0,0,24033
738,738,0,0,0,24033
739,739,0,0,0,24033
740,740,0,0,0,24033
741,741,0,0,0,24033
742,742,0,0,0,24033
743,743,0,0,0,24033
744,744,0,0,0,24033
745,745,0,0,0,24033
746,746,0,0,0,24033
747,747,0,0,0,24033
748,748,0,0,0,24033
749,749,0,0,0,24033
750,750,0,0,0,24033
751,751,0,0,0,24033
752,752,0,0,0,24033
753,753,0,0,0,24033
754,754,0,0,0,24033
755,755,0,0,0,24033
756,756,0,0,0,24033
757,757,0,0,0,24033
758,758,0,0,0,24033
759,759,0,0,0,24033
760,760,0,0,0,24033
761,761,0,0,0,24033
762,762,0,0,0,24033
763,763,0,0,0,24033
764,764,0,0,0,24033
765,765,0,0,0,24033
766,766,0,0,0,24033
767,767,0,0,0,24033
768,768,0,0,0,24033
769,769,0,0,0,24033
770,770,0,0,0,24033
771,771,0,0,0,24033
772,772,0,0,0,24033
773,773,0,0,0,24033
774,774,0,0,0,24033
775,775,0,0,0,24033
776,776,0,0,0,24033
777,777,0,0,0,24033
778,778,0,0,0,24033
779,779,0,0,0,24033
780,780,0,0,0,24033
781,781,0,0,0,24033
782,782,0,0,0,24033
783,783,0,0,0,24033
784,784,0,0,0,24033
785,785,0,0,0,24033
786,786,0,0,0,24033
787,787,0,0,0,24033
788,788,0,0,0,24033
789,789,0,0,0,24033
790,790,0,0,0,24033
791,791,0,0,0,24033
792,792,0,0,0,24033
793,793,0,0,0,24033
794,794,0,0,0,24033
795,795,0,0,0,24033
796,796,0,0,0,24033
797,797,0,0,0,24033
798,798,0,1,1,24033
799,799,0,0,1,24033
800,800,0,0,1,24033
801,801,0,0,1,24033
802,802,0,0,1,24033
803,803,0,0,1,24033
804,804,0,0,1,24033
805,805,0,0,1,24033
806,806,0,0,1,24033
807,807,0,0,1,24033
808,808,0,0,1,24033
809,809,0,0,1,24033
810,810,0,0,1,24033
811,811,0,0,1,24033
812,812,0,0,1,24033
813,813,0,0,1,24033
814,814,0,0,1,24033
815,815,0,0,1,24033
816,816,0,0,1,24033
817,817,0,0,1,24033
818,818,0,0,1,24033
819,819,0,0,1,24033
820,820,0,0,1,24033
821,821,0,0,1,24033
822,822,0,0,1,24033
823,823,0,0,1,24033
824,824,0,0,1,24033
825,825,0,0,1,24033
826,826,0,0,1,24033
827,827,0,0,1,24033
828,828,0,0,1,24033
829,829,0,0,1,24033
830,830,0,0,1,24033
831,831,0,0,1,24033
832,832,0,0,1,24033
833,833,0,0,1,24033
834,834,0,0,1,24033
835,835,0,0,1,24033
836,836,0,0,1,24033
837,837,0,0,1,24033
838,838,0,0,1,24033
839,839,0,0,1,24033
840,840,0,0,1,24033
841,841,0,0,1,24033
842,842,0,0,1,24033
843,843,0,0,1,24033
844,844,0,0,1,24033
845,845,0,0,1,24033
846,846,0,0,1,24033
847,847,0,0,1,24033
848,848,0,0,1,24033
849,849,0,0,1,24033
850,850,0,0,1,24033
851,851,0,0,1,24033
852,852,0,0,1,24033
853,853,0,0,1,24033
854,854,0,0,1,24033
855,855,0,0,1,24033
856,856,0,0,1,24033
857,857,0,0,1,24033
858,858,0,0,1,24033
859,859,0,0,1,24033
860,860,0,0,1,24033
861,861,0,0,1,24033
862,862,0,0,1,24033
863,863,0,0,1,24033
864,864,0,0,1,24033
865,865,0,0,1,24033
866,866,0,0,1,24033
867,867,0,0,1,24033
868,868,0,0,1,24033
869,869,0,0,1,24033
870,870,0,0,1,24033
871,871,0,0,1,24033
872,872,0,0,1,24033
873,873,0,0,1,24033
874,874,0,0,1,24033
875,875,0,0,1,24033
876,876,0,0,1,24033
877,877,0,0,1,24033
878,878,0,0,1,24033
879,879,0,0,1,24033
880,880,0,0,1,24033
881,881,0,0,1,24033
882,882,0,0,1,24033
883,883,0,0,1,24033
884,884,0,0,1,24033
885,885,0,0,1,24033
886,886,0,0,1,24033
887,887,0,0,1,24033
888,888,0,0,1,24033
889,889,0,0,1,24033
890,890,0,0,1,24033
891,891,0,0,1,24033
892,892,0,0,1,24033
893,893,0,0,1,24033
894,894,0,0,1,24033
895,895,0,0,1,24033
896,896,0,0,1,24033
897,897,0,0,1,24033
898,898,0,0,1,24033
899,899,0,0,1,24033
900,900,0,0,1,24033
901,901,0,0,1,24033
902,902,0,0,1,24033
903,903,0,0,1,24033
904,904,0,0,1,24033
905,905,0,0,1,24033
906,906,0,0,1,24033
907,907,0,0,1,24033
908,908,0,0,1,24033
909,909,0,0,1,24033
910,910,0,0,1,24033
911,911,0,0,1,24033
912,912,0,0,1,24033
913,913,0,0,1,24033
914,914,0,0,1,24033
915,915,0,0,1,24033
916,916,0,0,1,24033
917,917,0,0,1,24033
918,918,0,0,1,24033
919,919,0,0,1,24033
920,920,0,0,1,24033
921,921,0,0,1,24033
922,922,0,0,1,24033
923,923,0,0,1,24033
924,924,0,0,1,24033
925,925,0,0,1,24033
926,926,0,0,1,24033
927,927,0,0,1,24033
928,928,0,0,1,24033
929,929,0,0,1,24033
930,930,0,0,1,24033
931,931,0,0,1,24033
932,932,0,0,1,24033
933,933,0,0,1,24033
934,934,0,0,1,24033
935,935,0,0,1,24033
936,936,0,0,1,24033
937,937,0,0,1,24033
938,938,0,0,1,24033
939,939,0,0,1,24033
940,940,0,0,1,24033
941,941,0,1,0,24033
942,942,0,0,0,24033
943,943,0,0,0,24033
944,944,0,0,0,24033
945,945,0,0,0,24033
946,946,0,0,0,24033
947,947,0,0,0,24033
948,948,0,0,0,24033
949,949,0,0,0,24033
950,950,0,0,0,24033
951,951,0,0,0,24033
952,952,0,0,0,24033
953,953,0,0,0,24033
954,954,0,0,0,24033
955,955,0,0,0,24033
956,956,0,0,0,24033
957,957,0,0,0,24033
958,958,0,0,0,24033
959,959,0,0,0,24033
960,960,0,0,0,24033
961,961,0,0,0,24033
962,962,0,0,0,24033
963,963,0,0,0,24033
964,964,0,0,0,24033
965,965,0,0,0,24033
966,966,0,0,0,24033
967,967,0,0,0,24033
968,968,0,0,0,24033
969,969,0,0,0,24033
970,970,0,0,0,24033
971,971,0,0,0,24033
972,972,0,0,0,24033
973,973,0,0,0,24033
974,974,0,0,0,24033
975,975,0,0,0,24033
976,976,0,0,0,24033
977,977,0,0,0,24033
978,978,0,0,0,24033
979,979,0,0,0,24033
980,980,0,0,0,24033
981,981,0,0,0,24033
982,982,0,0,0,24033
983,983,0,0,0,24033
984,984,0,0,0,24033
985,985,0,0,0,24033
986,986,0,0,0,24033
987,987,0,0,0,24033
988,988,0,0,0,24033
989,989,0,0,0,24033
990,990,0,0,0,24033
991,991,0,0,0,24033
992,992,0,0,0,24033
993,993,0,0,0,24033
