Sample in Buffer,Sample in Window,TRIGGER,pynq_bd_i/xadc_wiz_0_drdy_out,pynq_bd_i/dpp_counter_0_fifo_o[31:0],pynq_bd_i/dpp_counter_0_y[31:0]
Radix - UNSIGNED,UNSIGNED,UNSIGNED,HEX,SIGNED,SIGNED
0,0,0,0,0,7342
1,1,0,0,0,7342
2,2,0,0,0,7342
3,3,0,0,0,7342
4,4,0,0,0,7342
5,5,0,0,0,7342
6,6,0,0,0,7342
7,7,0,0,0,7342
8,8,0,0,0,7342
9,9,0,0,0,7342
10,10,0,0,0,7342
11,11,0,0,0,7342
12,12,0,0,0,7342
13,13,0,0,0,7342
14,14,0,0,0,7342
15,15,0,0,0,7342
16,16,0,0,0,7342
17,17,0,0,0,7342
18,18,0,0,0,7342
19,19,0,0,0,7342
20,20,0,0,0,7342
21,21,0,0,0,7342
22,22,0,0,0,7342
23,23,0,0,0,7342
24,24,0,0,0,7342
25,25,0,0,0,7342
26,26,0,0,0,7342
27,27,0,0,0,7342
28,28,0,0,0,7342
29,29,0,0,0,7342
30,30,0,0,0,7342
31,31,0,0,0,7342
32,32,0,0,0,7342
33,33,0,0,0,7342
34,34,0,0,0,7342
35,35,0,0,0,7342
36,36,0,0,0,7342
37,37,0,0,0,7342
38,38,0,0,0,7342
39,39,0,0,0,7342
40,40,0,0,0,7342
41,41,0,0,0,7342
42,42,0,0,0,7342
43,43,0,0,0,7342
44,44,0,0,0,7342
45,45,0,0,0,7342
46,46,0,0,0,7342
47,47,0,0,0,7342
48,48,0,0,0,7342
49,49,0,0,0,7342
50,50,0,0,0,7342
51,51,0,0,0,7342
52,52,0,0,0,7342
53,53,0,0,0,7342
54,54,0,0,0,7342
55,55,0,0,0,7342
56,56,0,0,0,7342
57,57,0,0,0,7342
58,58,0,0,0,7342
59,59,0,0,0,7342
60,60,0,0,0,7342
61,61,0,0,0,7342
62,62,0,0,0,7342
63,63,0,0,0,7342
64,64,0,0,0,7342
65,65,0,0,0,7342
66,66,0,0,0,7342
67,67,0,0,0,7342
68,68,0,0,0,7342
69,69,0,0,0,7342
70,70,0,0,0,7342
71,71,0,0,0,7342
72,72,0,0,0,7342
73,73,0,0,0,7342
74,74,0,0,0,7342
75,75,0,0,0,7342
76,76,0,0,0,7342
77,77,0,0,0,7342
78,78,0,0,0,7342
79,79,0,0,0,7342
80,80,0,0,0,7342
81,81,0,0,0,7342
82,82,0,0,0,7342
83,83,0,1,0,7342
84,84,0,1,0,7342
85,85,0,0,0,7342
86,86,0,0,0,7342
87,87,0,0,0,7342
88,88,0,0,0,7342
89,89,0,0,0,7342
90,90,0,0,0,7342
91,91,0,0,0,7342
92,92,0,0,0,7342
93,93,0,0,0,7342
94,94,0,0,0,7342
95,95,0,0,0,7342
96,96,0,0,0,7342
97,97,0,0,0,7342
98,98,0,0,0,7342
99,99,0,0,0,7342
100,100,0,0,0,7342
101,101,0,0,0,7342
102,102,0,0,0,7342
103,103,0,0,0,7342
104,104,0,0,0,7342
105,105,0,0,0,7342
106,106,0,0,0,7342
107,107,0,0,0,7342
108,108,0,0,0,7342
109,109,0,0,0,7342
110,110,0,0,0,7342
111,111,0,0,0,7342
112,112,0,0,0,7342
113,113,0,0,0,7342
114,114,0,0,0,7342
115,115,0,0,0,7342
116,116,0,0,0,7342
117,117,0,0,0,7342
118,118,0,0,0,7342
119,119,0,0,0,7342
120,120,0,0,0,7342
121,121,0,0,0,7342
122,122,0,0,0,7342
123,123,0,0,0,7342
124,124,0,0,0,7342
125,125,0,0,0,7342
126,126,0,0,0,7342
127,127,0,0,0,7342
128,128,0,0,0,7342
129,129,0,0,0,7342
130,130,0,0,0,7342
131,131,0,0,0,7342
132,132,0,0,0,7342
133,133,0,0,0,7342
134,134,0,0,0,7342
135,135,0,0,0,7342
136,136,0,0,0,7342
137,137,0,0,0,7342
138,138,0,0,0,7342
139,139,0,0,0,7342
140,140,0,0,0,7342
141,141,0,0,0,7342
142,142,0,0,0,7342
143,143,0,0,0,7342
144,144,0,0,0,7342
145,145,0,0,0,7342
146,146,0,0,0,7342
147,147,0,0,0,7342
148,148,0,0,0,7342
149,149,0,0,0,7342
150,150,0,0,0,7342
151,151,0,0,0,7342
152,152,0,0,0,7342
153,153,0,0,0,7342
154,154,0,0,0,7342
155,155,0,0,0,7342
156,156,0,0,0,7342
157,157,0,0,0,7342
158,158,0,0,0,7342
159,159,0,0,0,7342
160,160,0,0,0,7342
161,161,0,0,0,7342
162,162,0,0,0,7342
163,163,0,0,0,7342
164,164,0,0,0,7342
165,165,0,0,0,7342
166,166,0,0,0,7342
167,167,0,0,0,7342
168,168,0,0,0,7342
169,169,0,0,0,7342
170,170,0,0,0,7342
171,171,0,0,0,7342
172,172,0,0,0,7342
173,173,0,0,0,7342
174,174,0,0,0,7342
175,175,0,0,0,7342
176,176,0,0,0,7342
177,177,0,0,0,7342
178,178,0,0,0,7342
179,179,0,0,0,7342
180,180,0,0,0,7342
181,181,0,0,0,7342
182,182,0,0,0,7342
183,183,0,0,0,7342
184,184,0,0,0,7342
185,185,0,0,0,7342
186,186,0,0,0,7342
187,187,0,0,0,7342
188,188,0,0,0,7342
189,189,0,0,0,7342
190,190,0,0,0,7342
191,191,0,0,0,7342
192,192,0,0,0,7342
193,193,0,0,0,7342
194,194,0,0,0,7342
195,195,0,0,0,7342
196,196,0,0,0,7342
197,197,0,0,0,7342
198,198,0,0,0,7342
199,199,0,0,0,7342
200,200,0,0,0,7342
201,201,0,0,0,7342
202,202,0,0,0,7342
203,203,0,0,0,7342
204,204,0,0,0,7342
205,205,0,0,0,7342
206,206,0,0,0,7342
207,207,0,0,0,7342
208,208,0,0,0,7342
209,209,0,0,0,7342
210,210,0,0,0,7342
211,211,0,0,0,7342
212,212,0,0,0,7342
213,213,0,0,0,7342
214,214,0,0,0,7342
215,215,0,0,0,7342
216,216,0,0,0,7342
217,217,0,0,0,7342
218,218,0,0,0,7342
219,219,0,0,0,7342
220,220,0,0,0,7342
221,221,0,0,0,7342
222,222,0,0,0,7342
223,223,0,0,0,7342
224,224,0,0,0,7342
225,225,0,0,0,7342
226,226,0,1,0,7342
227,227,0,1,0,7342
228,228,0,0,0,7342
229,229,0,0,0,7342
230,230,0,0,0,7342
231,231,0,0,0,7342
232,232,0,0,0,7342
233,233,0,0,0,7342
234,234,0,0,0,7342
235,235,0,0,0,7342
236,236,0,0,0,7342
237,237,0,0,0,7342
238,238,0,0,0,7342
239,239,0,0,0,7342
240,240,0,0,0,7342
241,241,0,0,0,7342
242,242,0,0,0,7342
243,243,0,0,0,7342
244,244,0,0,0,7342
245,245,0,0,0,7342
246,246,0,0,0,7342
247,247,0,0,0,7342
248,248,0,0,0,7342
249,249,0,0,0,7342
250,250,0,0,0,7342
251,251,0,0,0,7342
252,252,0,0,0,7342
253,253,0,0,0,7342
254,254,0,0,0,7342
255,255,0,0,0,7342
256,256,0,0,0,7342
257,257,0,0,0,7342
258,258,0,0,0,7342
259,259,0,0,0,7342
260,260,0,0,0,7342
261,261,0,0,0,7342
262,262,0,0,0,7342
263,263,0,0,0,7342
264,264,0,0,0,7342
265,265,0,0,0,7342
266,266,0,0,0,7342
267,267,0,0,0,7342
268,268,0,0,0,7342
269,269,0,0,0,7342
270,270,0,0,0,7342
271,271,0,0,0,7342
272,272,0,0,0,7342
273,273,0,0,0,7342
274,274,0,0,0,7342
275,275,0,0,0,7342
276,276,0,0,0,7342
277,277,0,0,0,7342
278,278,0,0,0,7342
279,279,0,0,0,7342
280,280,0,0,0,7342
281,281,0,0,0,7342
282,282,0,0,0,7342
283,283,0,0,0,7342
284,284,0,0,0,7342
285,285,0,0,0,7342
286,286,0,0,0,7342
287,287,0,0,0,7342
288,288,0,0,0,7342
289,289,0,0,0,7342
290,290,0,0,0,7342
291,291,0,0,0,7342
292,292,0,0,0,7342
293,293,0,0,0,7342
294,294,0,0,0,7342
295,295,0,0,0,7342
296,296,0,0,0,7342
297,297,0,0,0,7342
298,298,0,0,0,7342
299,299,0,0,0,7342
300,300,0,0,0,7342
301,301,0,0,0,7342
302,302,0,0,0,7342
303,303,0,0,0,7342
304,304,0,0,0,7342
305,305,0,0,0,7342
306,306,0,0,0,7342
307,307,0,0,0,7342
308,308,0,0,0,7342
309,309,0,0,0,7342
310,310,0,0,0,7342
311,311,0,0,0,7342
312,312,0,0,0,7342
313,313,0,0,0,7342
314,314,0,0,0,7342
315,315,0,0,0,7342
316,316,0,0,0,7342
317,317,0,0,0,7342
318,318,0,0,0,7342
319,319,0,0,0,7342
320,320,0,0,0,7342
321,321,0,0,0,7342
322,322,0,0,0,7342
323,323,0,0,0,7342
324,324,0,0,0,7342
325,325,0,0,0,7342
326,326,0,0,0,7342
327,327,0,0,0,7342
328,328,0,0,0,7342
329,329,0,0,0,7342
330,330,0,0,0,7342
331,331,0,0,0,7342
332,332,0,0,0,7342
333,333,0,0,0,7342
334,334,0,0,0,7342
335,335,0,0,0,7342
336,336,0,0,0,7342
337,337,0,0,0,7342
338,338,0,0,0,7342
339,339,0,0,0,7342
340,340,0,0,0,7342
341,341,0,0,0,7342
342,342,0,0,0,7342
343,343,0,0,0,7342
344,344,0,0,0,7342
345,345,0,0,0,7342
346,346,0,0,0,7342
347,347,0,0,0,7342
348,348,0,0,0,7342
349,349,0,0,0,7342
350,350,0,0,0,7342
351,351,0,0,0,7342
352,352,0,0,0,7342
353,353,0,0,0,7342
354,354,0,0,0,7342
355,355,0,0,0,7342
356,356,0,0,0,7342
357,357,0,0,0,7342
358,358,0,0,0,7342
359,359,0,0,0,7342
360,360,0,0,0,7342
361,361,0,0,0,7342
362,362,0,0,0,7342
363,363,0,0,0,7342
364,364,0,0,0,7342
365,365,0,0,0,7342
366,366,0,0,0,7342
367,367,0,0,0,7342
368,368,0,0,0,7342
369,369,0,1,0,7342
370,370,0,0,0,7342
371,371,0,0,0,7342
372,372,0,0,0,7342
373,373,0,0,0,7342
374,374,0,0,0,7342
375,375,0,0,0,7342
376,376,0,0,0,7342
377,377,0,0,0,7342
378,378,0,0,0,7342
379,379,0,0,0,7342
380,380,0,0,0,7342
381,381,0,0,0,7342
382,382,0,0,0,7342
383,383,0,0,0,7342
384,384,0,0,0,7342
385,385,0,0,0,7342
386,386,0,0,0,7342
387,387,0,0,0,7342
388,388,0,0,0,7342
389,389,0,0,0,7342
390,390,0,0,0,7342
391,391,0,0,0,7342
392,392,0,0,0,7342
393,393,0,0,0,7342
394,394,0,0,0,7342
395,395,0,0,0,7342
396,396,0,0,0,7342
397,397,0,0,0,7342
398,398,0,0,0,7342
399,399,0,0,0,7342
400,400,0,0,0,7342
401,401,0,0,0,7342
402,402,0,0,0,7342
403,403,0,0,0,7342
404,404,0,0,0,7342
405,405,0,0,0,7342
406,406,0,0,0,7342
407,407,0,0,0,7342
408,408,0,0,0,7342
409,409,0,0,0,7342
410,410,0,0,0,7342
411,411,0,0,0,7342
412,412,0,0,0,7342
413,413,0,0,0,7342
414,414,0,0,0,7342
415,415,0,0,0,7342
416,416,0,0,0,7342
417,417,0,0,0,7342
418,418,0,0,0,7342
419,419,0,0,0,7342
420,420,0,0,0,7342
421,421,0,0,0,7342
422,422,0,0,0,7342
423,423,0,0,0,7342
424,424,0,0,0,7342
425,425,0,0,0,7342
426,426,0,0,0,7342
427,427,0,0,0,7342
428,428,0,0,0,7342
429,429,0,0,0,7342
430,430,0,0,0,7342
431,431,0,0,0,7342
432,432,0,0,0,7342
433,433,0,0,0,7342
434,434,0,0,0,7342
435,435,0,0,0,7342
436,436,0,0,0,7342
437,437,0,0,0,7342
438,438,0,0,0,7342
439,439,0,0,0,7342
440,440,0,0,0,7342
441,441,0,0,0,7342
442,442,0,0,0,7342
443,443,0,0,0,7342
444,444,0,0,0,7342
445,445,0,0,0,7342
446,446,0,0,0,7342
447,447,0,0,0,7342
448,448,0,0,0,7342
449,449,0,0,0,7342
450,450,0,0,0,7342
451,451,0,0,0,7342
452,452,0,0,0,7342
453,453,0,0,0,7342
454,454,0,0,0,7342
455,455,0,0,0,7342
456,456,0,0,0,7342
457,457,0,0,0,7342
458,458,0,0,0,7342
459,459,0,0,0,7342
460,460,0,0,0,7342
461,461,0,0,0,7342
462,462,0,0,0,7342
463,463,0,0,0,7342
464,464,0,0,0,7342
465,465,0,0,0,7342
466,466,0,0,0,7342
467,467,0,0,0,7342
468,468,0,0,0,7342
469,469,0,0,0,7342
470,470,0,0,0,7342
471,471,0,0,0,7342
472,472,0,0,0,7342
473,473,0,0,0,7342
474,474,0,0,0,7342
475,475,0,0,0,7342
476,476,0,0,0,7342
477,477,0,0,0,7342
478,478,0,0,0,7342
479,479,0,0,0,7342
480,480,0,0,0,7342
481,481,0,0,0,7342
482,482,0,0,0,7342
483,483,0,0,0,7342
484,484,0,0,0,7342
485,485,0,0,0,7342
486,486,0,0,0,7342
487,487,0,0,0,7342
488,488,0,0,0,7342
489,489,0,0,0,7342
490,490,0,0,0,7342
491,491,0,0,0,7342
492,492,0,0,0,7342
493,493,0,0,0,7342
494,494,0,0,0,7342
495,495,0,0,0,7342
496,496,0,0,0,7342
497,497,0,0,0,7342
498,498,0,0,0,7342
499,499,0,0,0,7342
500,500,0,0,0,7342
501,501,0,0,0,7342
502,502,0,0,0,7342
503,503,0,0,0,7342
504,504,0,0,0,7342
505,505,0,0,0,7342
506,506,0,0,0,7342
507,507,0,0,0,7342
508,508,0,0,0,7342
509,509,0,0,0,7342
510,510,0,0,0,7342
511,511,0,0,0,7342
512,512,1,1,10,7342
513,513,0,0,10,7342
514,514,0,0,10,7342
515,515,0,0,10,7342
516,516,0,0,10,7342
517,517,0,0,10,7342
518,518,0,0,10,7342
519,519,0,0,10,7342
520,520,0,0,10,7342
521,521,0,0,10,7342
522,522,0,0,10,7342
523,523,0,0,10,7342
524,524,0,0,10,7342
525,525,0,0,10,7342
526,526,0,0,10,7342
527,527,0,0,10,7342
528,528,0,0,10,7342
529,529,0,0,10,7342
530,530,0,0,10,7342
531,531,0,0,10,7342
532,532,0,0,10,7342
533,533,0,0,10,7342
534,534,0,0,10,7342
535,535,0,0,10,7342
536,536,0,0,10,7342
537,537,0,0,10,7342
538,538,0,0,10,7342
539,539,0,0,10,7342
540,540,0,0,10,7342
541,541,0,0,10,7342
542,542,0,0,10,7342
543,543,0,0,10,7342
544,544,0,0,10,7342
545,545,0,0,10,7342
546,546,0,0,10,7342
547,547,0,0,10,7342
548,548,0,0,10,7342
549,549,0,0,10,7342
550,550,0,0,10,7342
551,551,0,0,10,7342
552,552,0,0,10,7342
553,553,0,0,10,7342
554,554,0,0,10,7342
555,555,0,0,10,7342
556,556,0,0,10,7342
557,557,0,0,10,7342
558,558,0,0,10,7342
559,559,0,0,10,7342
560,560,0,0,10,7342
561,561,0,0,10,7342
562,562,0,0,10,7342
563,563,0,0,10,7342
564,564,0,0,10,7342
565,565,0,0,10,7342
566,566,0,0,10,7342
567,567,0,0,10,7342
568,568,0,0,10,7342
569,569,0,0,10,7342
570,570,0,0,10,7342
571,571,0,0,10,7342
572,572,0,0,10,7342
573,573,0,0,10,7342
574,574,0,0,10,7342
575,575,0,0,10,7342
576,576,0,0,10,7342
577,577,0,0,10,7342
578,578,0,0,10,7342
579,579,0,0,10,7342
580,580,0,0,10,7342
581,581,0,0,10,7342
582,582,0,0,10,7342
583,583,0,0,10,7342
584,584,0,0,10,7342
585,585,0,0,10,7342
586,586,0,0,10,7342
587,587,0,0,10,7342
588,588,0,0,10,7342
589,589,0,0,10,7342
590,590,0,0,10,7342
591,591,0,0,10,7342
592,592,0,0,10,7342
593,593,0,0,10,7342
594,594,0,0,10,7342
595,595,0,0,10,7342
596,596,0,0,10,7342
597,597,0,0,10,7342
598,598,0,0,10,7342
599,599,0,0,10,7342
600,600,0,0,10,7342
601,601,0,0,10,7342
602,602,0,0,10,7342
603,603,0,0,10,7342
604,604,0,0,10,7342
605,605,0,0,10,7342
606,606,0,0,10,7342
607,607,0,0,10,7342
608,608,0,0,10,7342
609,609,0,0,10,7342
610,610,0,0,10,7342
611,611,0,0,10,7342
612,612,0,0,10,7342
613,613,0,0,10,7342
614,614,0,0,10,7342
615,615,0,0,10,7342
616,616,0,0,10,7342
617,617,0,0,10,7342
618,618,0,0,10,7342
619,619,0,0,10,7342
620,620,0,0,10,7342
621,621,0,0,10,7342
622,622,0,0,10,7342
623,623,0,0,10,7342
624,624,0,0,10,7342
625,625,0,0,10,7342
626,626,0,0,10,7342
627,627,0,0,10,7342
628,628,0,0,10,7342
629,629,0,0,10,7342
630,630,0,0,10,7342
631,631,0,0,10,7342
632,632,0,0,10,7342
633,633,0,0,10,7342
634,634,0,0,10,7342
635,635,0,0,10,7342
636,636,0,0,10,7342
637,637,0,0,10,7342
638,638,0,0,10,7342
639,639,0,0,10,7342
640,640,0,0,10,7342
641,641,0,0,10,7342
642,642,0,0,10,7342
643,643,0,0,10,7342
644,644,0,0,10,7342
645,645,0,0,10,7342
646,646,0,0,10,7342
647,647,0,0,10,7342
648,648,0,0,10,7342
649,649,0,0,10,7342
650,650,0,0,10,7342
651,651,0,0,10,7342
652,652,0,0,10,7342
653,653,0,0,10,7342
654,654,0,0,10,7342
655,655,0,1,77,7342
656,656,0,0,77,7342
657,657,0,0,77,7342
658,658,0,0,77,7342
659,659,0,0,77,7342
660,660,0,0,77,7342
661,661,0,0,77,7342
662,662,0,0,77,7342
663,663,0,0,77,7342
664,664,0,0,77,7342
665,665,0,0,77,7342
666,666,0,0,77,7342
667,667,0,0,77,7342
668,668,0,0,77,7342
669,669,0,0,77,7342
670,670,0,0,77,7342
671,671,0,0,77,7342
672,672,0,0,77,7342
673,673,0,0,77,7342
674,674,0,0,77,7342
675,675,0,0,77,7342
676,676,0,0,77,7342
677,677,0,0,77,7342
678,678,0,0,77,7342
679,679,0,0,77,7342
680,680,0,0,77,7342
681,681,0,0,77,7342
682,682,0,0,77,7342
683,683,0,0,77,7342
684,684,0,0,77,7342
685,685,0,0,77,7342
686,686,0,0,77,7342
687,687,0,0,77,7342
688,688,0,0,77,7342
689,689,0,0,77,7342
690,690,0,0,77,7342
691,691,0,0,77,7342
692,692,0,0,77,7342
693,693,0,0,77,7342
694,694,0,0,77,7342
695,695,0,0,77,7342
696,696,0,0,77,7342
697,697,0,0,77,7342
698,698,0,0,77,7342
699,699,0,0,77,7342
700,700,0,0,77,7342
701,701,0,0,77,7342
702,702,0,0,77,7342
703,703,0,0,77,7342
704,704,0,0,77,7342
705,705,0,0,77,7342
706,706,0,0,77,7342
707,707,0,0,77,7342
708,708,0,0,77,7342
709,709,0,0,77,7342
710,710,0,0,77,7342
711,711,0,0,77,7342
712,712,0,0,77,7342
713,713,0,0,77,7342
714,714,0,0,77,7342
715,715,0,0,77,7342
716,716,0,0,77,7342
717,717,0,0,77,7342
718,718,0,0,77,7342
719,719,0,0,77,7342
720,720,0,0,77,7342
721,721,0,0,77,7342
722,722,0,0,77,7342
723,723,0,0,77,7342
724,724,0,0,77,7342
725,725,0,0,77,7342
726,726,0,0,77,7342
727,727,0,0,77,7342
728,728,0,0,77,7342
729,729,0,0,77,7342
730,730,0,0,77,7342
731,731,0,0,77,7342
732,732,0,0,77,7342
733,733,0,0,77,7342
734,734,0,0,77,7342
735,735,0,0,77,7342
736,736,0,0,77,7342
737,737,0,0,77,7342
738,738,0,0,77,7342
739,739,0,0,77,7342
740,740,0,0,77,7342
741,741,0,0,77,7342
742,742,0,0,77,7342
743,743,0,0,77,7342
744,744,0,0,77,7342
745,745,0,0,77,7342
746,746,0,0,77,7342
747,747,0,0,77,7342
748,748,0,0,77,7342
749,749,0,0,77,7342
750,750,0,0,77,7342
751,751,0,0,77,7342
752,752,0,0,77,7342
753,753,0,0,77,7342
754,754,0,0,77,7342
755,755,0,0,77,7342
756,756,0,0,77,7342
757,757,0,0,77,7342
758,758,0,0,77,7342
759,759,0,0,77,7342
760,760,0,0,77,7342
761,761,0,0,77,7342
762,762,0,0,77,7342
763,763,0,0,77,7342
764,764,0,0,77,7342
765,765,0,0,77,7342
766,766,0,0,77,7342
767,767,0,0,77,7342
768,768,0,0,77,7342
769,769,0,0,77,7342
770,770,0,0,77,7342
771,771,0,0,77,7342
772,772,0,0,77,7342
773,773,0,0,77,7342
774,774,0,0,77,7342
775,775,0,0,77,7342
776,776,0,0,77,7342
777,777,0,0,77,7342
778,778,0,0,77,7342
779,779,0,0,77,7342
780,780,0,0,77,7342
781,781,0,0,77,7342
782,782,0,0,77,7342
783,783,0,0,77,7342
784,784,0,0,77,7342
785,785,0,0,77,7342
786,786,0,0,77,7342
787,787,0,0,77,7342
788,788,0,0,77,7342
789,789,0,0,77,7342
790,790,0,0,77,7342
791,791,0,0,77,7342
792,792,0,0,77,7342
793,793,0,0,77,7342
794,794,0,0,77,7342
795,795,0,0,77,7342
796,796,0,0,77,7342
797,797,0,0,77,7342
798,798,0,1,68,7342
799,799,0,0,68,7342
800,800,0,0,68,7342
801,801,0,0,68,7342
802,802,0,0,68,7342
803,803,0,0,68,7342
804,804,0,0,68,7342
805,805,0,0,68,7342
806,806,0,0,68,7342
807,807,0,0,68,7342
808,808,0,0,68,7342
809,809,0,0,68,7342
810,810,0,0,68,7342
811,811,0,0,68,7342
812,812,0,0,68,7342
813,813,0,0,68,7342
814,814,0,0,68,7342
815,815,0,0,68,7342
816,816,0,0,68,7342
817,817,0,0,68,7342
818,818,0,0,68,7342
819,819,0,0,68,7342
820,820,0,0,68,7342
821,821,0,0,68,7342
822,822,0,0,68,7342
823,823,0,0,68,7342
824,824,0,0,68,7342
825,825,0,0,68,7342
826,826,0,0,68,7342
827,827,0,0,68,7342
828,828,0,0,68,7342
829,829,0,0,68,7342
830,830,0,0,68,7342
831,831,0,0,68,7342
832,832,0,0,68,7342
833,833,0,0,68,7342
834,834,0,0,68,7342
835,835,0,0,68,7342
836,836,0,0,68,7342
837,837,0,0,68,7342
838,838,0,0,68,7342
839,839,0,0,68,7342
840,840,0,0,68,7342
841,841,0,0,68,7342
842,842,0,0,68,7342
843,843,0,0,68,7342
844,844,0,0,68,7342
845,845,0,0,68,7342
846,846,0,0,68,7342
847,847,0,0,68,7342
848,848,0,0,68,7342
849,849,0,0,68,7342
850,850,0,0,68,7342
851,851,0,0,68,7342
852,852,0,0,68,7342
853,853,0,0,68,7342
854,854,0,0,68,7342
855,855,0,0,68,7342
856,856,0,0,68,7342
857,857,0,0,68,7342
858,858,0,0,68,7342
859,859,0,0,68,7342
860,860,0,0,68,7342
861,861,0,0,68,7342
862,862,0,0,10,7337
863,863,0,0,29,7342
864,864,0,0,68,7342
865,865,0,0,68,7342
866,866,0,0,68,7342
867,867,0,0,68,7342
868,868,0,0,68,7342
869,869,0,0,68,7342
870,870,0,0,68,7342
871,871,0,0,68,7342
872,872,0,0,68,7342
873,873,0,0,68,7342
874,874,0,0,68,7342
875,875,0,0,68,7342
876,876,0,0,68,7342
877,877,0,0,68,7342
878,878,0,0,68,7342
879,879,0,0,68,7342
880,880,0,0,68,7342
881,881,0,0,68,7342
882,882,0,0,68,7342
883,883,0,0,68,7342
884,884,0,0,68,7342
885,885,0,0,68,7342
886,886,0,0,68,7342
887,887,0,0,68,7342
888,888,0,0,68,7342
889,889,0,0,68,7342
890,890,0,0,68,7342
891,891,0,0,68,7342
892,892,0,0,68,7342
893,893,0,0,68,7342
894,894,0,0,68,7342
895,895,0,0,68,7342
896,896,0,0,68,7342
897,897,0,0,68,7342
898,898,0,0,68,7342
899,899,0,0,68,7342
900,900,0,0,68,7342
901,901,0,0,68,7342
902,902,0,0,68,7342
903,903,0,0,68,7342
904,904,0,0,68,7342
905,905,0,0,68,7342
906,906,0,0,68,7342
907,907,0,0,68,7342
908,908,0,0,68,7342
909,909,0,0,68,7342
910,910,0,0,68,7342
911,911,0,0,68,7342
912,912,0,0,68,7342
913,913,0,0,68,7342
914,914,0,0,68,7342
915,915,0,0,68,7342
916,916,0,0,68,7342
917,917,0,0,68,7342
918,918,0,0,68,7342
919,919,0,0,68,7342
920,920,0,0,68,7342
921,921,0,0,68,7342
922,922,0,0,68,7342
923,923,0,0,68,7342
924,924,0,0,68,7342
925,925,0,0,68,7342
926,926,0,0,68,7342
927,927,0,0,68,7342
928,928,0,0,68,7342
929,929,0,0,68,7342
930,930,0,0,68,7342
931,931,0,0,68,7342
932,932,0,0,68,7342
933,933,0,0,68,7342
934,934,0,0,68,7342
935,935,0,0,68,7342
936,936,0,0,68,7342
937,937,0,0,68,7342
938,938,0,0,68,7342
939,939,0,0,68,7342
940,940,0,0,68,7342
941,941,0,1,68,7342
942,942,0,1,61,7342
943,943,0,0,61,7342
944,944,0,0,61,7342
945,945,0,0,61,7342
946,946,0,0,61,7342
947,947,0,0,61,7342
948,948,0,0,61,7342
949,949,0,0,61,7342
950,950,0,0,61,7342
951,951,0,0,61,7342
952,952,0,0,61,7342
953,953,0,0,61,7342
954,954,0,0,61,7342
955,955,0,0,61,7342
956,956,0,0,61,7342
957,957,0,0,61,7342
958,958,0,0,61,7342
959,959,0,0,61,7342
960,960,0,0,61,7342
961,961,0,0,61,7342
962,962,0,0,61,7342
963,963,0,0,61,7342
964,964,0,0,61,7342
965,965,0,0,61,7342
966,966,0,0,61,7342
967,967,0,0,61,7342
968,968,0,0,61,7342
969,969,0,0,61,7342
970,970,0,0,61,7342
971,971,0,0,61,7342
972,972,0,0,61,7342
973,973,0,0,61,7342
974,974,0,0,61,7342
975,975,0,0,61,7342
976,976,0,0,61,7342
977,977,0,0,61,7342
978,978,0,0,61,7342
979,979,0,0,61,7342
980,980,0,0,61,7342
981,981,0,0,61,7342
982,982,0,0,61,7342
983,983,0,0,61,7342
984,984,0,0,61,7342
985,985,0,0,61,7342
986,986,0,0,61,7342
987,987,0,0,61,7342
988,988,0,0,61,7342
989,989,0,0,61,7342
990,990,0,0,61,7342
991,991,0,0,61,7342
992,992,0,0,61,7342
993,993,0,0,61,7342
994,994,0,0,61,7342
995,995,0,0,61,7342
996,996,0,0,61,7342
997,997,0,0,61,7342
998,998,0,0,61,7342
999,999,0,0,61,7342
1000,1000,0,0,61,7342
1001,1001,0,0,61,7342
1002,1002,0,0,61,7342
1003,1003,0,0,61,7342
1004,1004,0,0,61,7342
1005,1005,0,0,61,7342
1006,1006,0,0,61,7342
1007,1007,0,0,61,7342
1008,1008,0,0,61,7342
1009,1009,0,0,61,7342
1010,1010,0,0,61,7342
1011,1011,0,0,61,7342
1012,1012,0,0,61,7342
1013,1013,0,0,61,7342
1014,1014,0,0,61,7342
1015,1015,0,0,61,7342
1016,1016,0,0,61,7342
1017,1017,0,0,61,7342
1018,1018,0,0,61,7342
1019,1019,0,0,61,7342
1020,1020,0,0,61,7342
1021,1021,0,0,61,7342
1022,1022,0,0,61,7342
1023,1023,0,0,61,7342
