Sample in Buffer,Sample in Window,TRIGGER,pynq_bd_i/xadc_wiz_0_drdy_out,pynq_bd_i/dpp_counter_0_fifo_o[31:0],pynq_bd_i/dpp_counter_0_y[31:0]
Radix - UNSIGNED,UNSIGNED,UNSIGNED,HEX,SIGNED,SIGNED
0,0,0,0,0,12100
1,1,0,0,0,12100
2,2,0,0,0,12100
3,3,0,0,0,12100
4,4,0,0,0,12100
5,5,0,0,0,12100
6,6,0,0,0,12100
7,7,0,0,0,12100
8,8,0,0,0,12100
9,9,0,0,0,12100
10,10,0,0,0,12100
11,11,0,0,0,12100
12,12,0,0,0,12100
13,13,0,0,0,12100
14,14,0,0,0,12100
15,15,0,0,0,12100
16,16,0,0,0,12100
17,17,0,0,0,12100
18,18,0,0,0,12100
19,19,0,0,0,12100
20,20,0,0,0,12100
21,21,0,0,0,12100
22,22,0,0,0,12100
23,23,0,0,0,12100
24,24,0,0,0,12100
25,25,0,0,0,12100
26,26,0,0,0,12100
27,27,0,0,0,12100
28,28,0,0,0,12100
29,29,0,0,0,12100
30,30,0,0,0,12100
31,31,0,0,0,12100
32,32,0,0,0,12100
33,33,0,0,0,12100
34,34,0,0,0,12100
35,35,0,0,0,12100
36,36,0,0,0,12100
37,37,0,0,0,12100
38,38,0,0,0,12100
39,39,0,0,0,12100
40,40,0,0,0,12100
41,41,0,0,0,12100
42,42,0,0,0,12100
43,43,0,0,0,12100
44,44,0,0,0,12100
45,45,0,0,0,12100
46,46,0,0,0,12100
47,47,0,0,0,12100
48,48,0,0,0,12100
49,49,0,0,0,12100
50,50,0,0,0,12100
51,51,0,0,0,12100
52,52,0,0,0,12100
53,53,0,0,0,12100
54,54,0,0,0,12100
55,55,0,0,0,12100
56,56,0,0,0,12100
57,57,0,0,0,12100
58,58,0,0,0,12100
59,59,0,0,0,12100
60,60,0,0,0,12100
61,61,0,0,0,12100
62,62,0,0,0,12100
63,63,0,0,0,12100
64,64,0,0,0,12100
65,65,0,0,0,12100
66,66,0,0,0,12100
67,67,0,0,0,12100
68,68,0,0,0,12100
69,69,0,0,0,12100
70,70,0,0,0,12100
71,71,0,0,0,12100
72,72,0,0,0,12100
73,73,0,0,0,12100
74,74,0,0,0,12100
75,75,0,0,0,12100
76,76,0,0,0,12100
77,77,0,0,0,12100
78,78,0,0,0,12100
79,79,0,0,0,12100
80,80,0,0,0,12100
81,81,0,0,0,12100
82,82,0,0,0,12100
83,83,0,1,0,12100
84,84,0,0,0,12100
85,85,0,0,0,12100
86,86,0,0,0,12100
87,87,0,0,0,12100
88,88,0,0,0,12100
89,89,0,0,0,12100
90,90,0,0,0,12100
91,91,0,0,0,12100
92,92,0,0,0,12100
93,93,0,0,0,12100
94,94,0,0,0,12100
95,95,0,0,0,12100
96,96,0,0,0,12100
97,97,0,0,0,12100
98,98,0,0,0,12100
99,99,0,0,0,12100
100,100,0,0,0,12100
101,101,0,0,0,12100
102,102,0,0,0,12100
103,103,0,0,0,12100
104,104,0,0,0,12100
105,105,0,0,0,12100
106,106,0,0,0,12100
107,107,0,0,0,12100
108,108,0,0,0,12100
109,109,0,0,0,12100
110,110,0,0,0,12100
111,111,0,0,0,12100
112,112,0,0,0,12100
113,113,0,0,0,12100
114,114,0,0,0,12100
115,115,0,0,0,12100
116,116,0,0,0,12100
117,117,0,0,0,12100
118,118,0,0,0,12100
119,119,0,0,0,12100
120,120,0,0,0,12100
121,121,0,0,0,12100
122,122,0,0,0,12100
123,123,0,0,0,12100
124,124,0,0,0,12100
125,125,0,0,0,12100
126,126,0,0,0,12100
127,127,0,0,0,12100
128,128,0,0,0,12100
129,129,0,0,0,12100
130,130,0,0,0,12100
131,131,0,0,0,12100
132,132,0,0,0,12100
133,133,0,0,0,12100
134,134,0,0,0,12100
135,135,0,0,0,12100
136,136,0,0,0,12100
137,137,0,0,0,12100
138,138,0,0,0,12100
139,139,0,0,0,12100
140,140,0,0,0,12100
141,141,0,0,0,12100
142,142,0,0,0,12100
143,143,0,0,0,12100
144,144,0,0,0,12100
145,145,0,0,0,12100
146,146,0,0,0,12100
147,147,0,0,0,12100
148,148,0,0,0,12100
149,149,0,0,0,12100
150,150,0,0,0,12100
151,151,0,0,0,12100
152,152,0,0,0,12100
153,153,0,0,0,12100
154,154,0,0,0,12100
155,155,0,0,0,12100
156,156,0,0,0,12100
157,157,0,0,0,12100
158,158,0,0,0,12100
159,159,0,0,0,12100
160,160,0,0,0,12100
161,161,0,0,0,12100
162,162,0,0,0,12100
163,163,0,0,0,12100
164,164,0,0,0,12100
165,165,0,0,0,12100
166,166,0,0,0,12100
167,167,0,0,0,12100
168,168,0,0,0,12100
169,169,0,0,0,12100
170,170,0,0,0,12100
171,171,0,0,0,12100
172,172,0,0,0,12100
173,173,0,0,0,12100
174,174,0,0,0,12100
175,175,0,0,0,12100
176,176,0,0,0,12100
177,177,0,0,0,12100
178,178,0,0,0,12100
179,179,0,0,0,12100
180,180,0,0,0,12100
181,181,0,0,0,12100
182,182,0,0,0,12100
183,183,0,0,0,12100
184,184,0,0,0,12100
185,185,0,0,0,12100
186,186,0,0,0,12100
187,187,0,0,0,12100
188,188,0,0,0,12100
189,189,0,0,0,12100
190,190,0,0,0,12100
191,191,0,0,0,12100
192,192,0,0,0,12100
193,193,0,0,0,12100
194,194,0,0,0,12100
195,195,0,0,0,12100
196,196,0,0,0,12100
197,197,0,0,0,12100
198,198,0,0,0,12100
199,199,0,0,0,12100
200,200,0,0,0,12100
201,201,0,0,0,12100
202,202,0,0,0,12100
203,203,0,0,0,12100
204,204,0,0,0,12100
205,205,0,0,0,12100
206,206,0,0,0,12100
207,207,0,0,0,12100
208,208,0,0,0,12100
209,209,0,0,0,12100
210,210,0,0,0,12100
211,211,0,0,0,12100
212,212,0,0,0,12100
213,213,0,0,0,12100
214,214,0,0,0,12100
215,215,0,0,0,12100
216,216,0,0,0,12100
217,217,0,0,0,12100
218,218,0,0,0,12100
219,219,0,0,0,12100
220,220,0,0,0,12100
221,221,0,0,0,12100
222,222,0,0,0,12100
223,223,0,0,0,12100
224,224,0,0,0,12100
225,225,0,0,0,12100
226,226,0,1,0,12100
227,227,0,0,0,12100
228,228,0,0,0,12100
229,229,0,0,0,12100
230,230,0,0,0,12100
231,231,0,0,0,12100
232,232,0,0,0,12100
233,233,0,0,0,12100
234,234,0,0,0,12100
235,235,0,0,0,12100
236,236,0,0,0,12100
237,237,0,0,0,12100
238,238,0,0,0,12100
239,239,0,0,0,12100
240,240,0,0,0,12100
241,241,0,0,0,12100
242,242,0,0,0,12100
243,243,0,0,0,12100
244,244,0,0,0,12100
245,245,0,0,0,12100
246,246,0,0,0,12100
247,247,0,0,0,12100
248,248,0,0,0,12100
249,249,0,0,0,12100
250,250,0,0,0,12100
251,251,0,0,0,12100
252,252,0,0,0,12100
253,253,0,0,0,12100
254,254,0,0,0,12100
255,255,0,0,0,12100
256,256,0,0,0,12100
257,257,0,0,0,12100
258,258,0,0,0,12100
259,259,0,0,0,12100
260,260,0,0,0,12100
261,261,0,0,0,12100
262,262,0,0,0,12100
263,263,0,0,0,12100
264,264,0,0,0,12100
265,265,0,0,0,12100
266,266,0,0,0,12100
267,267,0,0,0,12100
268,268,0,0,0,12100
269,269,0,0,0,12100
270,270,0,0,0,12100
271,271,0,0,0,12100
272,272,0,0,0,12100
273,273,0,0,0,12100
274,274,0,0,0,12100
275,275,0,0,0,12100
276,276,0,0,0,12100
277,277,0,0,0,12100
278,278,0,0,0,12100
279,279,0,0,0,12100
280,280,0,0,0,12100
281,281,0,0,0,12100
282,282,0,0,0,12100
283,283,0,0,0,12100
284,284,0,0,0,12100
285,285,0,0,0,12100
286,286,0,0,0,12100
287,287,0,0,0,12100
288,288,0,0,0,12100
289,289,0,0,0,12100
290,290,0,0,0,12100
291,291,0,0,0,12100
292,292,0,0,0,12100
293,293,0,0,0,12100
294,294,0,0,0,12100
295,295,0,0,0,12100
296,296,0,0,0,12100
297,297,0,0,0,12100
298,298,0,0,0,12100
299,299,0,0,0,12100
300,300,0,0,0,12100
301,301,0,0,0,12100
302,302,0,0,0,12100
303,303,0,0,0,12100
304,304,0,0,0,12100
305,305,0,0,0,12100
306,306,0,0,0,12100
307,307,0,0,0,12100
308,308,0,0,0,12100
309,309,0,0,0,12100
310,310,0,0,0,12100
311,311,0,0,0,12100
312,312,0,0,0,12100
313,313,0,0,0,12100
314,314,0,0,0,12100
315,315,0,0,0,12100
316,316,0,0,0,12100
317,317,0,0,0,12100
318,318,0,0,0,12100
319,319,0,0,0,12100
320,320,0,0,0,12100
321,321,0,0,0,12100
322,322,0,0,0,12100
323,323,0,0,0,12100
324,324,0,0,0,12100
325,325,0,0,0,12100
326,326,0,0,0,12100
327,327,0,0,0,12100
328,328,0,0,0,12100
329,329,0,0,0,12100
330,330,0,0,0,12100
331,331,0,0,0,12100
332,332,0,0,0,12100
333,333,0,0,0,12100
334,334,0,0,0,12100
335,335,0,0,0,12100
336,336,0,0,0,12100
337,337,0,0,0,12100
338,338,0,0,0,12100
339,339,0,0,0,12100
340,340,0,0,0,12100
341,341,0,0,0,12100
342,342,0,0,0,12100
343,343,0,0,0,12100
344,344,0,0,0,12100
345,345,0,0,0,12100
346,346,0,0,0,12100
347,347,0,0,0,12100
348,348,0,0,0,12100
349,349,0,0,0,12100
350,350,0,0,0,12100
351,351,0,0,0,12100
352,352,0,0,0,12100
353,353,0,0,0,12100
354,354,0,0,0,12100
355,355,0,0,0,12100
356,356,0,0,0,12100
357,357,0,0,0,12100
358,358,0,0,0,12100
359,359,0,0,0,12100
360,360,0,0,0,12100
361,361,0,0,0,12100
362,362,0,0,0,12100
363,363,0,0,0,12100
364,364,0,0,0,12100
365,365,0,0,0,12100
366,366,0,0,0,12100
367,367,0,0,0,12100
368,368,0,0,0,12100
369,369,0,1,0,12100
370,370,0,0,0,12100
371,371,0,0,0,12100
372,372,0,0,0,12100
373,373,0,0,0,12100
374,374,0,0,0,12100
375,375,0,0,0,12100
376,376,0,0,0,12100
377,377,0,0,0,12100
378,378,0,0,0,12100
379,379,0,0,0,12100
380,380,0,0,0,12100
381,381,0,0,0,12100
382,382,0,0,0,12100
383,383,0,0,0,12100
384,384,0,0,0,12100
385,385,0,0,0,12100
386,386,0,0,0,12100
387,387,0,0,0,12100
388,388,0,0,0,12100
389,389,0,0,0,12100
390,390,0,0,0,12100
391,391,0,0,0,12100
392,392,0,0,0,12100
393,393,0,0,0,12100
394,394,0,0,0,12100
395,395,0,0,0,12100
396,396,0,0,0,12100
397,397,0,0,0,12100
398,398,0,0,0,12100
399,399,0,0,0,12100
400,400,0,0,0,12100
401,401,0,0,0,12100
402,402,0,0,0,12100
403,403,0,0,0,12100
404,404,0,0,0,12100
405,405,0,0,0,12100
406,406,0,0,0,12100
407,407,0,0,0,12100
408,408,0,0,0,12100
409,409,0,0,0,12100
410,410,0,0,0,12100
411,411,0,0,0,12100
412,412,0,0,0,12100
413,413,0,0,0,12100
414,414,0,0,0,12100
415,415,0,0,0,12100
416,416,0,0,0,12100
417,417,0,0,0,12100
418,418,0,0,0,12100
419,419,0,0,0,12100
420,420,0,0,0,12100
421,421,0,0,0,12100
422,422,0,0,0,12100
423,423,0,0,0,12100
424,424,0,0,0,12100
425,425,0,0,0,12100
426,426,0,0,0,12100
427,427,0,0,0,12100
428,428,0,0,0,12100
429,429,0,0,0,12100
430,430,0,0,0,12100
431,431,0,0,0,12100
432,432,0,0,0,12100
433,433,0,0,0,12100
434,434,0,0,0,12100
435,435,0,0,0,12100
436,436,0,0,0,12100
437,437,0,0,0,12100
438,438,0,0,0,12100
439,439,0,0,0,12100
440,440,0,0,0,12100
441,441,0,0,0,12100
442,442,0,0,0,12100
443,443,0,0,0,12100
444,444,0,0,0,12100
445,445,0,0,0,12100
446,446,0,0,0,12100
447,447,0,0,0,12100
448,448,0,0,0,12100
449,449,0,0,0,12100
450,450,0,0,0,12100
451,451,0,0,0,12100
452,452,0,0,0,12100
453,453,0,0,0,12100
454,454,0,0,0,12100
455,455,0,0,0,12100
456,456,0,0,0,12100
457,457,0,0,0,12100
458,458,0,0,0,12100
459,459,0,0,0,12100
460,460,0,0,0,12100
461,461,0,0,0,12100
462,462,0,0,0,12100
463,463,0,0,0,12100
464,464,0,0,0,12100
465,465,0,0,0,12100
466,466,0,0,0,12100
467,467,0,0,0,12100
468,468,0,0,0,12100
469,469,0,0,0,12100
470,470,0,0,0,12100
471,471,0,0,0,12100
472,472,0,0,0,12100
473,473,0,0,0,12100
474,474,0,0,0,12100
475,475,0,0,0,12100
476,476,0,0,0,12100
477,477,0,0,0,12100
478,478,0,0,0,12100
479,479,0,0,0,12100
480,480,0,0,0,12100
481,481,0,0,0,12100
482,482,0,0,0,12100
483,483,0,0,0,12100
484,484,0,0,0,12100
485,485,0,0,0,12100
486,486,0,0,0,12100
487,487,0,0,0,12100
488,488,0,0,0,12100
489,489,0,0,0,12100
490,490,0,0,0,12100
491,491,0,0,0,12100
492,492,0,0,0,12100
493,493,0,0,0,12100
494,494,0,0,0,12100
495,495,0,0,0,12100
496,496,0,0,0,12100
497,497,0,0,0,12100
498,498,0,0,0,12100
499,499,0,0,0,12100
500,500,0,0,0,12100
501,501,0,0,0,12100
502,502,0,0,0,12100
503,503,0,0,0,12100
504,504,0,0,0,12100
505,505,0,0,0,12100
506,506,0,0,0,12100
507,507,0,0,0,12100
508,508,0,0,0,12100
509,509,0,0,0,12100
510,510,0,0,0,12100
511,511,0,1,0,12100
512,512,1,1,10,12100
513,513,0,0,10,12100
514,514,0,0,10,12100
515,515,0,0,10,12100
516,516,0,0,10,12100
517,517,0,0,10,12100
518,518,0,0,10,12100
519,519,0,0,10,12100
520,520,0,0,10,12100
521,521,0,0,10,12100
522,522,0,0,10,12100
523,523,0,0,10,12100
524,524,0,0,10,12100
525,525,0,0,10,12100
526,526,0,0,10,12100
527,527,0,0,10,12100
528,528,0,0,10,12100
529,529,0,0,10,12100
530,530,0,0,10,12100
531,531,0,0,10,12100
532,532,0,0,10,12100
533,533,0,0,10,12100
534,534,0,0,10,12100
535,535,0,0,10,12100
536,536,0,0,10,12100
537,537,0,0,10,12100
538,538,0,0,10,12100
539,539,0,0,10,12100
540,540,0,0,10,12100
541,541,0,0,10,12100
542,542,0,0,10,12100
543,543,0,0,10,12100
544,544,0,0,10,12100
545,545,0,0,10,12100
546,546,0,0,10,12100
547,547,0,0,10,12100
548,548,0,0,10,12100
549,549,0,0,10,12100
550,550,0,0,10,12100
551,551,0,0,10,12100
552,552,0,0,10,12100
553,553,0,0,10,12100
554,554,0,0,10,12100
555,555,0,0,10,12100
556,556,0,0,10,12100
557,557,0,0,10,12100
558,558,0,0,10,12100
559,559,0,0,10,12100
560,560,0,0,10,12100
561,561,0,0,10,12100
562,562,0,0,10,12100
563,563,0,0,10,12100
564,564,0,0,10,12100
565,565,0,0,10,12100
566,566,0,0,10,12100
567,567,0,0,10,12100
568,568,0,0,10,12100
569,569,0,0,10,12100
570,570,0,0,10,12100
571,571,0,0,10,12100
572,572,0,0,10,12100
573,573,0,0,10,12100
574,574,0,0,10,12100
575,575,0,0,10,12100
576,576,0,0,10,12100
577,577,0,0,10,12100
578,578,0,0,10,12100
579,579,0,0,10,12100
580,580,0,0,10,12100
581,581,0,0,10,12100
582,582,0,0,10,12100
583,583,0,0,10,12100
584,584,0,0,10,12100
585,585,0,0,10,12100
586,586,0,0,10,12100
587,587,0,0,10,12100
588,588,0,0,10,12100
589,589,0,0,10,12100
590,590,0,0,10,12100
591,591,0,0,10,12100
592,592,0,0,10,12100
593,593,0,0,10,12100
594,594,0,0,10,12100
595,595,0,0,10,12100
596,596,0,0,10,12100
597,597,0,0,10,12100
598,598,0,0,10,12100
599,599,0,0,10,12100
600,600,0,0,10,12100
601,601,0,0,10,12100
602,602,0,0,10,12100
603,603,0,0,10,12100
604,604,0,0,10,12100
605,605,0,0,10,12100
606,606,0,0,10,12100
607,607,0,0,10,12100
608,608,0,0,10,12100
609,609,0,0,10,12100
610,610,0,0,10,12100
611,611,0,0,10,12100
612,612,0,0,10,12100
613,613,0,0,10,12100
614,614,0,0,10,12100
615,615,0,0,10,12100
616,616,0,0,10,12100
617,617,0,0,10,12100
618,618,0,0,10,12100
619,619,0,0,10,12100
620,620,0,0,10,12100
621,621,0,0,10,12100
622,622,0,0,10,12100
623,623,0,0,10,12100
624,624,0,0,10,12100
625,625,0,0,10,12100
626,626,0,0,10,12100
627,627,0,0,10,12100
628,628,0,0,10,12100
629,629,0,0,10,12100
630,630,0,0,10,12100
631,631,0,0,10,12100
632,632,0,0,10,12100
633,633,0,0,10,12100
634,634,0,0,10,12100
635,635,0,0,10,12100
636,636,0,0,10,12100
637,637,0,0,10,12100
638,638,0,0,10,12100
639,639,0,0,10,12100
640,640,0,0,10,12100
641,641,0,0,10,12100
642,642,0,0,10,12100
643,643,0,0,10,12100
644,644,0,0,10,12100
645,645,0,0,10,12100
646,646,0,0,10,12100
647,647,0,0,10,12100
648,648,0,0,10,12100
649,649,0,0,10,12100
650,650,0,0,10,12100
651,651,0,0,10,12100
652,652,0,0,10,12100
653,653,0,0,10,12100
654,654,0,1,286,12100
655,655,0,1,284,12100
656,656,0,0,284,12100
657,657,0,0,284,12100
658,658,0,0,284,12100
659,659,0,0,284,12100
660,660,0,0,284,12100
661,661,0,0,284,12100
662,662,0,0,284,12100
663,663,0,0,284,12100
664,664,0,0,284,12100
665,665,0,0,284,12100
666,666,0,0,284,12100
667,667,0,0,284,12100
668,668,0,0,284,12100
669,669,0,0,284,12100
670,670,0,0,284,12100
671,671,0,0,284,12100
672,672,0,0,284,12100
673,673,0,0,284,12100
674,674,0,0,284,12100
675,675,0,0,284,12100
676,676,0,0,284,12100
677,677,0,0,284,12100
678,678,0,0,284,12100
679,679,0,0,284,12100
680,680,0,0,284,12100
681,681,0,0,284,12100
682,682,0,0,284,12100
683,683,0,0,284,12100
684,684,0,0,284,12100
685,685,0,0,284,12100
686,686,0,0,284,12100
687,687,0,0,284,12100
688,688,0,0,284,12100
689,689,0,0,284,12100
690,690,0,0,284,12100
691,691,0,0,284,12100
692,692,0,0,284,12100
693,693,0,0,284,12100
694,694,0,0,284,12100
695,695,0,0,284,12100
696,696,0,0,284,12100
697,697,0,0,284,12100
698,698,0,0,284,12100
699,699,0,0,284,12100
700,700,0,0,284,12100
701,701,0,0,284,12100
702,702,0,0,284,12100
703,703,0,0,284,12100
704,704,0,0,284,12100
705,705,0,0,284,12100
706,706,0,0,284,12100
707,707,0,0,284,12100
708,708,0,0,284,12100
709,709,0,0,284,12100
710,710,0,0,284,12100
711,711,0,0,284,12100
712,712,0,0,284,12100
713,713,0,0,284,12100
714,714,0,0,284,12100
715,715,0,0,284,12100
716,716,0,0,284,12100
717,717,0,0,284,12100
718,718,0,0,284,12100
719,719,0,0,284,12100
720,720,0,0,284,12100
721,721,0,0,284,12100
722,722,0,0,284,12100
723,723,0,0,284,12100
724,724,0,0,284,12100
725,725,0,0,284,12100
726,726,0,0,284,12100
727,727,0,0,284,12100
728,728,0,0,284,12100
729,729,0,0,284,12100
730,730,0,0,284,12100
731,731,0,0,284,12100
732,732,0,0,284,12100
733,733,0,0,284,12100
734,734,0,0,284,12100
735,735,0,0,284,12100
736,736,0,0,284,12100
737,737,0,0,284,12100
738,738,0,0,284,12100
739,739,0,0,284,12100
740,740,0,0,284,12100
741,741,0,0,284,12100
742,742,0,0,284,12100
743,743,0,0,284,12100
744,744,0,0,284,12100
745,745,0,0,284,12100
746,746,0,0,284,12100
747,747,0,0,284,12100
748,748,0,0,284,12100
749,749,0,0,284,12100
750,750,0,0,284,12100
751,751,0,0,284,12100
752,752,0,0,284,12100
753,753,0,0,284,12100
754,754,0,0,284,12100
755,755,0,0,284,12100
756,756,0,0,284,12100
757,757,0,0,284,12100
758,758,0,0,284,12100
759,759,0,0,284,12100
760,760,0,0,284,12100
761,761,0,0,284,12100
762,762,0,0,284,12100
763,763,0,0,284,12100
764,764,0,0,284,12100
765,765,0,0,284,12100
766,766,0,0,284,12100
767,767,0,0,284,12100
768,768,0,0,284,12100
769,769,0,0,284,12100
770,770,0,0,284,12100
771,771,0,0,284,12100
772,772,0,0,284,12100
773,773,0,0,284,12100
774,774,0,0,284,12100
775,775,0,0,284,12100
776,776,0,0,284,12100
777,777,0,0,284,12100
778,778,0,0,284,12100
779,779,0,0,284,12100
780,780,0,0,284,12100
781,781,0,0,284,12100
782,782,0,0,284,12100
783,783,0,0,284,12100
784,784,0,0,284,12100
785,785,0,0,284,12100
786,786,0,0,284,12100
787,787,0,0,284,12100
788,788,0,0,284,12100
789,789,0,0,284,12100
790,790,0,0,284,12100
791,791,0,0,284,12100
792,792,0,0,284,12100
793,793,0,0,284,12100
794,794,0,0,284,12100
795,795,0,0,284,12100
796,796,0,0,284,12100
797,797,0,1,250,12100
798,798,0,1,250,12100
799,799,0,0,250,12100
800,800,0,0,250,12100
801,801,0,0,250,12100
802,802,0,0,250,12100
803,803,0,0,250,12100
804,804,0,0,250,12100
805,805,0,0,250,12100
806,806,0,0,250,12100
807,807,0,0,250,12100
808,808,0,0,250,12100
809,809,0,0,250,12100
810,810,0,0,250,12100
811,811,0,0,250,12100
812,812,0,0,250,12100
813,813,0,0,250,12100
814,814,0,0,250,12100
815,815,0,0,250,12100
816,816,0,0,250,12100
817,817,0,0,250,12100
818,818,0,0,250,12100
819,819,0,0,250,12100
820,820,0,0,250,12100
821,821,0,0,250,12100
822,822,0,0,250,12100
823,823,0,0,250,12100
824,824,0,0,250,12100
825,825,0,0,250,12100
826,826,0,0,250,12100
827,827,0,0,250,12100
828,828,0,0,250,12100
829,829,0,0,250,12100
830,830,0,0,250,12100
831,831,0,0,250,12100
832,832,0,0,250,12100
833,833,0,0,250,12100
834,834,0,0,250,12100
835,835,0,0,250,12100
836,836,0,0,250,12100
837,837,0,0,250,12100
838,838,0,0,250,12100
839,839,0,0,250,12100
840,840,0,0,250,12100
841,841,0,0,250,12100
842,842,0,0,250,12100
843,843,0,0,250,12100
844,844,0,0,250,12100
845,845,0,0,250,12100
846,846,0,0,250,12100
847,847,0,0,250,12100
848,848,0,0,250,12100
849,849,0,0,250,12100
850,850,0,0,250,12100
851,851,0,0,250,12100
852,852,0,0,250,12100
853,853,0,0,250,12100
854,854,0,0,250,12100
855,855,0,0,250,12100
856,856,0,0,250,12100
857,857,0,0,250,12100
858,858,0,0,250,12100
859,859,0,0,250,12100
860,860,0,0,250,12100
861,861,0,0,250,12100
862,862,0,0,250,12100
863,863,0,0,250,12100
864,864,0,0,250,12100
865,865,0,0,250,12100
866,866,0,0,250,12100
867,867,0,0,250,12100
868,868,0,0,250,12100
869,869,0,0,250,12100
870,870,0,0,250,12100
871,871,0,0,250,12100
872,872,0,0,250,12100
873,873,0,0,250,12100
874,874,0,0,250,12100
875,875,0,0,250,12100
876,876,0,0,250,12100
877,877,0,0,250,12100
878,878,0,0,250,12100
879,879,0,0,250,12100
880,880,0,0,250,12100
881,881,0,0,250,12100
882,882,0,0,250,12100
883,883,0,0,250,12100
884,884,0,0,250,12100
885,885,0,0,250,12100
886,886,0,0,250,12100
887,887,0,0,250,12100
888,888,0,0,250,12100
889,889,0,0,250,12100
890,890,0,0,250,12100
891,891,0,0,250,12100
892,892,0,0,250,12100
893,893,0,0,250,12100
894,894,0,0,250,12100
895,895,0,0,250,12100
896,896,0,0,250,12100
897,897,0,0,250,12100
898,898,0,0,250,12100
899,899,0,0,250,12100
900,900,0,0,250,12100
901,901,0,0,250,12100
902,902,0,0,250,12100
903,903,0,0,250,12100
904,904,0,0,250,12100
905,905,0,0,250,12100
906,906,0,0,250,12100
907,907,0,0,250,12100
908,908,0,0,250,12100
909,909,0,0,250,12100
910,910,0,0,250,12100
911,911,0,0,250,12100
912,912,0,0,250,12100
913,913,0,0,250,12100
914,914,0,0,250,12100
915,915,0,0,250,12100
916,916,0,0,250,12100
917,917,0,0,250,12100
918,918,0,0,250,12100
919,919,0,0,250,12100
920,920,0,0,250,12100
921,921,0,0,250,12100
922,922,0,0,250,12100
923,923,0,0,250,12100
924,924,0,0,250,12100
925,925,0,0,250,12100
926,926,0,0,250,12100
927,927,0,0,250,12100
928,928,0,0,250,12100
929,929,0,0,250,12100
930,930,0,0,250,12100
931,931,0,0,250,12100
932,932,0,0,250,12100
933,933,0,0,250,12100
934,934,0,0,250,12100
935,935,0,0,250,12100
936,936,0,0,250,12100
937,937,0,0,250,12100
938,938,0,0,250,12100
939,939,0,0,250,12100
940,940,0,1,213,12100
941,941,0,0,213,12100
942,942,0,0,213,12100
943,943,0,0,213,12100
944,944,0,0,213,12100
945,945,0,0,213,12100
946,946,0,0,213,12100
947,947,0,0,213,12100
948,948,0,0,213,12100
949,949,0,0,213,12100
950,950,0,0,213,12100
951,951,0,0,213,12100
952,952,0,0,213,12100
953,953,0,0,213,12100
954,954,0,0,213,12100
955,955,0,0,213,12100
956,956,0,0,213,12100
957,957,0,0,213,12100
958,958,0,0,213,12100
959,959,0,0,213,12100
960,960,0,0,213,12100
961,961,0,0,213,12100
962,962,0,0,213,12100
