Sample in Buffer,Sample in Window,TRIGGER,pynq_bd_i/xadc_wiz_0_drdy_out,pynq_bd_i/dpp_counter_0_fifo_o[31:0],pynq_bd_i/dpp_counter_0_y[31:0]
Radix - UNSIGNED,UNSIGNED,UNSIGNED,HEX,SIGNED,SIGNED
0,0,0,0,0,647
1,1,0,0,0,647
2,2,0,0,0,647
3,3,0,0,0,647
4,4,0,0,0,647
5,5,0,0,0,647
6,6,0,0,0,647
7,7,0,0,0,647
8,8,0,0,0,647
9,9,0,0,0,647
10,10,0,0,0,647
11,11,0,0,0,647
12,12,0,0,0,647
13,13,0,0,0,647
14,14,0,0,0,647
15,15,0,0,0,647
16,16,0,0,0,647
17,17,0,0,0,647
18,18,0,0,0,647
19,19,0,0,0,647
20,20,0,0,0,647
21,21,0,0,0,647
22,22,0,0,0,647
23,23,0,0,0,647
24,24,0,0,0,647
25,25,0,0,0,647
26,26,0,0,0,647
27,27,0,0,0,647
28,28,0,0,0,647
29,29,0,0,0,647
30,30,0,0,0,647
31,31,0,0,0,647
32,32,0,0,0,647
33,33,0,0,0,647
34,34,0,0,0,647
35,35,0,0,0,647
36,36,0,0,0,647
37,37,0,0,0,647
38,38,0,0,0,647
39,39,0,0,0,647
40,40,0,0,0,647
41,41,0,0,0,647
42,42,0,0,0,647
43,43,0,0,0,647
44,44,0,0,0,647
45,45,0,0,0,647
46,46,0,0,0,647
47,47,0,0,0,647
48,48,0,0,0,647
49,49,0,0,0,647
50,50,0,0,0,647
51,51,0,0,0,647
52,52,0,0,0,647
53,53,0,0,0,647
54,54,0,0,0,647
55,55,0,0,0,647
56,56,0,0,0,647
57,57,0,0,0,647
58,58,0,0,0,647
59,59,0,0,0,647
60,60,0,0,0,647
61,61,0,0,0,647
62,62,0,0,0,647
63,63,0,0,0,647
64,64,0,0,0,647
65,65,0,0,0,647
66,66,0,0,0,647
67,67,0,0,0,647
68,68,0,0,0,647
69,69,0,0,0,647
70,70,0,0,0,647
71,71,0,0,0,647
72,72,0,0,0,647
73,73,0,0,0,647
74,74,0,0,0,647
75,75,0,0,0,647
76,76,0,0,0,647
77,77,0,0,0,647
78,78,0,0,0,647
79,79,0,0,0,647
80,80,0,0,0,647
81,81,0,0,0,647
82,82,0,0,0,647
83,83,0,1,0,647
84,84,0,0,0,647
85,85,0,0,0,647
86,86,0,0,0,647
87,87,0,0,0,647
88,88,0,0,0,647
89,89,0,0,0,647
90,90,0,0,0,647
91,91,0,0,0,647
92,92,0,0,0,647
93,93,0,0,0,647
94,94,0,0,0,647
95,95,0,0,0,647
96,96,0,0,0,647
97,97,0,0,0,647
98,98,0,0,0,647
99,99,0,0,0,647
100,100,0,0,0,647
101,101,0,0,0,647
102,102,0,0,0,647
103,103,0,0,0,647
104,104,0,0,0,647
105,105,0,0,0,647
106,106,0,0,0,647
107,107,0,0,0,647
108,108,0,0,0,647
109,109,0,0,0,647
110,110,0,0,0,647
111,111,0,0,0,647
112,112,0,0,0,647
113,113,0,0,0,647
114,114,0,0,0,647
115,115,0,0,0,647
116,116,0,0,0,647
117,117,0,0,0,647
118,118,0,0,0,647
119,119,0,0,0,647
120,120,0,0,0,647
121,121,0,0,0,647
122,122,0,0,0,647
123,123,0,0,0,647
124,124,0,0,0,647
125,125,0,0,0,647
126,126,0,0,0,647
127,127,0,0,0,647
128,128,0,0,0,647
129,129,0,0,0,647
130,130,0,0,0,647
131,131,0,0,0,647
132,132,0,0,0,647
133,133,0,0,0,647
134,134,0,0,0,647
135,135,0,0,0,647
136,136,0,0,0,647
137,137,0,0,0,647
138,138,0,0,0,647
139,139,0,0,0,647
140,140,0,0,0,647
141,141,0,0,0,647
142,142,0,0,0,647
143,143,0,0,0,647
144,144,0,0,0,647
145,145,0,0,0,647
146,146,0,0,0,647
147,147,0,0,0,647
148,148,0,0,0,647
149,149,0,0,0,647
150,150,0,0,0,647
151,151,0,0,0,647
152,152,0,0,0,647
153,153,0,0,0,647
154,154,0,0,0,647
155,155,0,0,0,647
156,156,0,0,0,647
157,157,0,0,0,647
158,158,0,0,0,647
159,159,0,0,0,647
160,160,0,0,0,647
161,161,0,0,0,647
162,162,0,0,0,647
163,163,0,0,0,647
164,164,0,0,0,647
165,165,0,0,0,647
166,166,0,0,0,647
167,167,0,0,0,647
168,168,0,0,0,647
169,169,0,0,0,647
170,170,0,0,0,647
171,171,0,0,0,647
172,172,0,0,0,647
173,173,0,0,0,647
174,174,0,0,0,647
175,175,0,0,0,647
176,176,0,0,0,647
177,177,0,0,0,647
178,178,0,0,0,647
179,179,0,0,0,647
180,180,0,0,0,647
181,181,0,0,0,647
182,182,0,0,0,647
183,183,0,0,0,647
184,184,0,0,0,647
185,185,0,0,0,647
186,186,0,0,0,647
187,187,0,0,0,647
188,188,0,0,0,647
189,189,0,0,0,647
190,190,0,0,0,647
191,191,0,0,0,647
192,192,0,0,0,647
193,193,0,0,0,647
194,194,0,0,0,647
195,195,0,0,0,647
196,196,0,0,0,647
197,197,0,0,0,647
198,198,0,0,0,647
199,199,0,0,0,647
200,200,0,0,0,647
201,201,0,0,0,647
202,202,0,0,0,647
203,203,0,0,0,647
204,204,0,0,0,647
205,205,0,0,0,647
206,206,0,0,0,647
207,207,0,0,0,647
208,208,0,0,0,647
209,209,0,0,0,647
210,210,0,0,0,647
211,211,0,0,0,647
212,212,0,0,0,647
213,213,0,0,0,647
214,214,0,0,0,647
215,215,0,0,0,647
216,216,0,0,0,647
217,217,0,0,0,647
218,218,0,0,0,647
219,219,0,0,0,647
220,220,0,0,0,647
221,221,0,0,0,647
222,222,0,0,0,647
223,223,0,0,0,647
224,224,0,0,0,647
225,225,0,0,0,647
226,226,0,1,0,647
227,227,0,0,0,647
228,228,0,0,0,647
229,229,0,0,0,647
230,230,0,0,0,647
231,231,0,0,0,647
232,232,0,0,0,647
233,233,0,0,0,647
234,234,0,0,0,647
235,235,0,0,0,647
236,236,0,0,0,647
237,237,0,0,0,647
238,238,0,0,0,647
239,239,0,0,0,647
240,240,0,0,0,647
241,241,0,0,0,647
242,242,0,0,0,647
243,243,0,0,0,647
244,244,0,0,0,647
245,245,0,0,0,647
246,246,0,0,0,647
247,247,0,0,0,647
248,248,0,0,0,647
249,249,0,0,0,647
250,250,0,0,0,647
251,251,0,0,0,647
252,252,0,0,0,647
253,253,0,0,0,647
254,254,0,0,0,647
255,255,0,0,0,647
256,256,0,0,0,647
257,257,0,0,0,647
258,258,0,0,0,647
259,259,0,0,0,647
260,260,0,0,0,647
261,261,0,0,0,647
262,262,0,0,0,647
263,263,0,0,0,647
264,264,0,0,0,647
265,265,0,0,0,647
266,266,0,0,0,647
267,267,0,0,0,647
268,268,0,0,0,647
269,269,0,0,0,647
270,270,0,0,0,647
271,271,0,0,0,647
272,272,0,0,0,647
273,273,0,0,0,647
274,274,0,0,0,647
275,275,0,0,0,647
276,276,0,0,0,647
277,277,0,0,0,647
278,278,0,0,0,647
279,279,0,0,0,647
280,280,0,0,0,647
281,281,0,0,0,647
282,282,0,0,0,647
283,283,0,0,0,647
284,284,0,0,0,647
285,285,0,0,0,647
286,286,0,0,0,647
287,287,0,0,0,647
288,288,0,0,0,647
289,289,0,0,0,647
290,290,0,0,0,647
291,291,0,0,0,647
292,292,0,0,0,647
293,293,0,0,0,647
294,294,0,0,0,647
295,295,0,0,0,647
296,296,0,0,0,647
297,297,0,0,0,647
298,298,0,0,0,647
299,299,0,0,0,647
300,300,0,0,0,647
301,301,0,0,0,647
302,302,0,0,0,647
303,303,0,0,0,647
304,304,0,0,0,647
305,305,0,0,0,647
306,306,0,0,0,647
307,307,0,0,0,647
308,308,0,0,0,647
309,309,0,0,0,647
310,310,0,0,0,647
311,311,0,0,0,647
312,312,0,0,0,647
313,313,0,0,0,647
314,314,0,0,0,647
315,315,0,0,0,647
316,316,0,0,0,647
317,317,0,0,0,647
318,318,0,0,0,647
319,319,0,0,0,647
320,320,0,0,0,647
321,321,0,0,0,647
322,322,0,0,0,647
323,323,0,0,0,647
324,324,0,0,0,647
325,325,0,0,0,647
326,326,0,0,0,647
327,327,0,0,0,647
328,328,0,0,0,647
329,329,0,0,0,647
330,330,0,0,0,647
331,331,0,0,0,647
332,332,0,0,0,647
333,333,0,0,0,647
334,334,0,0,0,647
335,335,0,0,0,647
336,336,0,0,0,647
337,337,0,0,0,647
338,338,0,0,0,647
339,339,0,0,0,647
340,340,0,0,0,647
341,341,0,0,0,647
342,342,0,0,0,647
343,343,0,0,0,647
344,344,0,0,0,647
345,345,0,0,0,647
346,346,0,0,0,647
347,347,0,0,0,647
348,348,0,0,0,647
349,349,0,0,0,647
350,350,0,0,0,647
351,351,0,0,0,647
352,352,0,0,0,647
353,353,0,0,0,647
354,354,0,0,0,647
355,355,0,0,0,647
356,356,0,0,0,647
357,357,0,0,0,647
358,358,0,0,0,647
359,359,0,0,0,647
360,360,0,0,0,647
361,361,0,0,0,647
362,362,0,0,0,647
363,363,0,0,0,647
364,364,0,0,0,647
365,365,0,0,0,647
366,366,0,0,0,647
367,367,0,0,0,647
368,368,0,0,0,647
369,369,0,1,0,647
370,370,0,0,1,643
371,371,0,0,4,647
372,372,0,0,0,647
373,373,0,0,0,647
374,374,0,0,0,647
375,375,0,0,0,647
376,376,0,0,0,647
377,377,0,0,0,647
378,378,0,0,0,647
379,379,0,0,0,647
380,380,0,0,0,647
381,381,0,0,0,647
382,382,0,0,0,647
383,383,0,0,0,647
384,384,0,0,0,647
385,385,0,0,0,647
386,386,0,0,0,647
387,387,0,0,0,647
388,388,0,0,0,647
389,389,0,0,0,647
390,390,0,0,0,647
391,391,0,0,0,647
392,392,0,0,0,647
393,393,0,0,0,647
394,394,0,0,0,647
395,395,0,0,0,647
396,396,0,0,0,647
397,397,0,0,0,647
398,398,0,0,0,647
399,399,0,0,0,647
400,400,0,0,0,647
401,401,0,0,0,647
402,402,0,0,0,647
403,403,0,0,0,647
404,404,0,0,0,647
405,405,0,0,0,647
406,406,0,0,0,647
407,407,0,0,0,647
408,408,0,0,0,647
409,409,0,0,0,647
410,410,0,0,0,647
411,411,0,0,0,647
412,412,0,0,0,647
413,413,0,0,0,647
414,414,0,0,0,647
415,415,0,0,0,647
416,416,0,0,0,647
417,417,0,0,0,647
418,418,0,0,0,647
419,419,0,0,0,647
420,420,0,0,0,647
421,421,0,0,0,647
422,422,0,0,0,647
423,423,0,0,0,647
424,424,0,0,0,647
425,425,0,0,0,647
426,426,0,0,0,647
427,427,0,0,0,647
428,428,0,0,0,647
429,429,0,0,0,647
430,430,0,0,0,647
431,431,0,0,0,647
432,432,0,0,0,647
433,433,0,0,0,647
434,434,0,0,0,647
435,435,0,0,0,647
436,436,0,0,0,647
437,437,0,0,0,647
438,438,0,0,0,647
439,439,0,0,0,647
440,440,0,0,0,647
441,441,0,0,0,647
442,442,0,0,0,647
443,443,0,0,0,647
444,444,0,0,0,647
445,445,0,0,0,647
446,446,0,0,0,647
447,447,0,0,0,647
448,448,0,0,0,647
449,449,0,0,0,647
450,450,0,0,0,647
451,451,0,0,0,647
452,452,0,0,0,647
453,453,0,0,0,647
454,454,0,0,0,647
455,455,0,0,0,647
456,456,0,0,0,647
457,457,0,0,0,647
458,458,0,0,0,647
459,459,0,0,0,647
460,460,0,0,0,647
461,461,0,0,0,647
462,462,0,0,0,647
463,463,0,0,0,647
464,464,0,0,0,647
465,465,0,0,0,647
466,466,0,0,0,647
467,467,0,0,0,647
468,468,0,0,0,647
469,469,0,0,0,647
470,470,0,0,0,647
471,471,0,0,0,647
472,472,0,0,0,647
473,473,0,0,0,647
474,474,0,0,0,647
475,475,0,0,0,647
476,476,0,0,0,647
477,477,0,0,0,647
478,478,0,0,0,647
479,479,0,0,0,647
480,480,0,0,0,647
481,481,0,0,0,647
482,482,0,0,0,647
483,483,0,0,0,647
484,484,0,0,0,647
485,485,0,0,0,647
486,486,0,0,0,647
487,487,0,0,0,647
488,488,0,0,0,647
489,489,0,0,0,647
490,490,0,0,0,647
491,491,0,0,0,647
492,492,0,0,0,647
493,493,0,0,0,647
494,494,0,0,0,647
495,495,0,0,0,647
496,496,0,0,0,647
497,497,0,0,0,647
498,498,0,0,0,647
499,499,0,0,0,647
500,500,0,0,0,647
501,501,0,0,0,647
502,502,0,0,0,647
503,503,0,0,0,647
504,504,0,0,0,647
505,505,0,0,0,647
506,506,0,0,0,647
507,507,0,0,0,647
508,508,0,0,0,647
509,509,0,0,0,647
510,510,0,0,0,647
511,511,0,0,0,647
512,512,1,1,0,647
513,513,0,1,10,647
514,514,0,0,10,647
515,515,0,0,10,647
516,516,0,0,10,647
517,517,0,0,10,647
518,518,0,0,10,647
519,519,0,0,10,647
520,520,0,0,10,647
521,521,0,0,10,647
522,522,0,0,10,647
523,523,0,0,10,647
524,524,0,0,10,647
525,525,0,0,10,647
526,526,0,0,10,647
527,527,0,0,10,647
528,528,0,0,10,647
529,529,0,0,10,647
530,530,0,0,10,647
531,531,0,0,10,647
532,532,0,0,10,647
533,533,0,0,10,647
534,534,0,0,10,647
535,535,0,0,10,647
536,536,0,0,10,647
537,537,0,0,10,647
538,538,0,0,10,647
539,539,0,0,10,647
540,540,0,0,10,647
541,541,0,0,10,647
542,542,0,0,10,647
543,543,0,0,10,647
544,544,0,0,10,647
545,545,0,0,10,647
546,546,0,0,10,647
547,547,0,0,10,647
548,548,0,0,10,647
549,549,0,0,10,647
550,550,0,0,10,647
551,551,0,0,10,647
552,552,0,0,10,647
553,553,0,0,10,647
554,554,0,0,10,647
555,555,0,0,10,647
556,556,0,0,10,647
557,557,0,0,10,647
558,558,0,0,10,647
559,559,0,0,10,647
560,560,0,0,10,647
561,561,0,0,10,647
562,562,0,0,10,647
563,563,0,0,10,647
564,564,0,0,10,647
565,565,0,0,10,647
566,566,0,0,10,647
567,567,0,0,10,647
568,568,0,0,10,647
569,569,0,0,10,647
570,570,0,0,10,647
571,571,0,0,10,647
572,572,0,0,10,647
573,573,0,0,10,647
574,574,0,0,10,647
575,575,0,0,10,647
576,576,0,0,10,647
577,577,0,0,10,647
578,578,0,0,10,647
579,579,0,0,10,647
580,580,0,0,10,647
581,581,0,0,10,647
582,582,0,0,10,647
583,583,0,0,10,647
584,584,0,0,10,647
585,585,0,0,10,647
586,586,0,0,10,647
587,587,0,0,10,647
588,588,0,0,10,647
589,589,0,0,10,647
590,590,0,0,10,647
591,591,0,0,10,647
592,592,0,0,10,647
593,593,0,0,10,647
594,594,0,0,10,647
595,595,0,0,10,647
596,596,0,0,10,647
597,597,0,0,10,647
598,598,0,0,10,647
599,599,0,0,10,647
600,600,0,0,10,647
601,601,0,0,10,647
602,602,0,0,10,647
603,603,0,0,10,647
604,604,0,0,10,647
605,605,0,0,10,647
606,606,0,0,10,647
607,607,0,0,10,647
608,608,0,0,10,647
609,609,0,0,10,647
610,610,0,0,10,647
611,611,0,0,10,647
612,612,0,0,10,647
613,613,0,0,10,647
614,614,0,0,10,647
615,615,0,0,10,647
616,616,0,0,10,647
617,617,0,0,10,647
618,618,0,0,10,647
619,619,0,0,10,647
620,620,0,0,10,647
621,621,0,0,10,647
622,622,0,0,10,647
623,623,0,0,10,647
624,624,0,0,10,647
625,625,0,0,10,647
626,626,0,0,10,647
627,627,0,0,10,647
628,628,0,0,10,647
629,629,0,0,10,647
630,630,0,0,10,647
631,631,0,0,10,647
632,632,0,0,10,647
633,633,0,0,10,647
634,634,0,0,10,647
635,635,0,0,10,647
636,636,0,0,10,647
637,637,0,0,10,647
638,638,0,0,10,647
639,639,0,0,10,647
640,640,0,0,10,647
641,641,0,0,10,647
642,642,0,0,10,647
643,643,0,0,10,647
644,644,0,0,10,647
645,645,0,0,10,647
646,646,0,0,10,647
647,647,0,0,10,647
648,648,0,0,10,647
649,649,0,0,10,647
650,650,0,0,10,647
651,651,0,0,10,647
652,652,0,0,10,647
653,653,0,0,10,647
654,654,0,0,10,647
655,655,0,1,3,647
656,656,0,1,5,647
657,657,0,0,5,647
658,658,0,0,5,647
659,659,0,0,5,647
660,660,0,0,5,647
661,661,0,0,5,647
662,662,0,0,5,647
663,663,0,0,5,647
664,664,0,0,5,647
665,665,0,0,5,647
666,666,0,0,5,647
667,667,0,0,5,647
668,668,0,0,5,647
669,669,0,0,5,647
670,670,0,0,5,647
671,671,0,0,5,647
672,672,0,0,5,647
673,673,0,0,5,647
674,674,0,0,5,647
675,675,0,0,5,647
676,676,0,0,5,647
677,677,0,0,5,647
678,678,0,0,5,647
679,679,0,0,5,647
680,680,0,0,5,647
681,681,0,0,5,647
682,682,0,0,5,647
683,683,0,0,5,647
684,684,0,0,5,647
685,685,0,0,5,647
686,686,0,0,5,647
687,687,0,0,5,647
688,688,0,0,5,647
689,689,0,0,5,647
690,690,0,0,5,647
691,691,0,0,5,647
692,692,0,0,5,647
693,693,0,0,5,647
694,694,0,0,5,647
695,695,0,0,5,647
696,696,0,0,5,647
697,697,0,0,5,647
698,698,0,0,5,647
699,699,0,0,5,647
700,700,0,0,5,647
701,701,0,0,5,647
702,702,0,0,5,647
703,703,0,0,5,647
704,704,0,0,5,647
705,705,0,0,5,647
706,706,0,0,5,647
707,707,0,0,5,647
708,708,0,0,5,647
709,709,0,0,5,647
710,710,0,0,5,647
711,711,0,0,5,647
712,712,0,0,5,647
713,713,0,0,5,647
714,714,0,0,5,647
715,715,0,0,5,647
716,716,0,0,5,647
717,717,0,0,5,647
718,718,0,0,5,647
719,719,0,0,5,647
720,720,0,0,5,647
721,721,0,0,5,647
722,722,0,0,5,647
723,723,0,0,5,647
724,724,0,0,5,647
725,725,0,0,5,647
726,726,0,0,5,647
727,727,0,0,5,647
728,728,0,0,5,647
729,729,0,0,5,647
730,730,0,0,5,647
731,731,0,0,5,647
732,732,0,0,5,647
733,733,0,0,5,647
734,734,0,0,5,647
735,735,0,0,5,647
736,736,0,0,5,647
737,737,0,0,5,647
738,738,0,0,5,647
739,739,0,0,5,647
740,740,0,0,5,647
741,741,0,0,5,647
742,742,0,0,5,647
743,743,0,0,5,647
744,744,0,0,5,647
745,745,0,0,5,647
746,746,0,0,5,647
747,747,0,0,5,647
748,748,0,0,5,647
749,749,0,0,5,647
750,750,0,0,5,647
751,751,0,0,5,647
752,752,0,0,5,647
753,753,0,0,5,647
754,754,0,0,5,647
755,755,0,0,5,647
756,756,0,0,5,647
757,757,0,0,5,647
758,758,0,0,5,647
759,759,0,0,5,647
760,760,0,0,5,647
761,761,0,0,5,647
762,762,0,0,5,647
763,763,0,0,5,647
764,764,0,0,5,647
765,765,0,0,5,647
766,766,0,0,5,647
767,767,0,0,5,647
768,768,0,0,5,647
769,769,0,0,5,647
770,770,0,0,5,647
771,771,0,0,5,647
772,772,0,0,5,647
773,773,0,0,5,647
774,774,0,0,5,647
775,775,0,0,5,647
776,776,0,0,5,647
777,777,0,0,5,647
778,778,0,0,5,647
779,779,0,0,5,647
780,780,0,0,5,647
781,781,0,0,5,647
782,782,0,0,5,647
783,783,0,0,5,647
784,784,0,0,5,647
785,785,0,0,5,647
786,786,0,0,5,647
787,787,0,0,5,647
788,788,0,0,5,647
789,789,0,0,5,647
790,790,0,0,5,647
791,791,0,0,5,647
792,792,0,0,5,647
793,793,0,0,5,647
794,794,0,0,5,647
795,795,0,0,5,647
796,796,0,0,5,647
797,797,0,0,5,647
798,798,0,1,8,647
799,799,0,1,8,647
800,800,0,0,8,647
801,801,0,0,8,647
802,802,0,0,8,647
803,803,0,0,8,647
804,804,0,0,8,647
805,805,0,0,8,647
806,806,0,0,8,647
807,807,0,0,8,647
808,808,0,0,8,647
809,809,0,0,8,647
810,810,0,0,8,647
811,811,0,0,8,647
812,812,0,0,8,647
813,813,0,0,8,647
814,814,0,0,8,647
815,815,0,0,8,647
816,816,0,0,8,647
817,817,0,0,8,647
818,818,0,0,8,647
819,819,0,0,8,647
820,820,0,0,8,647
821,821,0,0,8,647
822,822,0,0,8,647
823,823,0,0,8,647
824,824,0,0,8,647
825,825,0,0,8,647
826,826,0,0,8,647
827,827,0,0,8,647
828,828,0,0,8,647
829,829,0,0,8,647
830,830,0,0,8,647
831,831,0,0,8,647
832,832,0,0,8,647
833,833,0,0,8,647
834,834,0,0,8,647
835,835,0,0,8,647
836,836,0,0,8,647
837,837,0,0,8,647
838,838,0,0,8,647
839,839,0,0,8,647
840,840,0,0,8,647
841,841,0,0,8,647
842,842,0,0,8,647
843,843,0,0,8,647
844,844,0,0,8,647
845,845,0,0,8,647
846,846,0,0,8,647
847,847,0,0,8,647
848,848,0,0,8,647
849,849,0,0,8,647
850,850,0,0,8,647
851,851,0,0,8,647
852,852,0,0,8,647
853,853,0,0,8,647
854,854,0,0,8,647
855,855,0,0,8,647
856,856,0,0,8,647
857,857,0,0,8,647
858,858,0,0,8,647
859,859,0,0,8,647
860,860,0,0,8,647
861,861,0,0,8,647
862,862,0,0,8,647
863,863,0,0,8,647
864,864,0,0,8,647
865,865,0,0,8,647
866,866,0,0,8,647
867,867,0,0,8,647
868,868,0,0,8,647
869,869,0,0,8,647
870,870,0,0,8,647
871,871,0,0,8,647
872,872,0,0,8,647
873,873,0,0,8,647
874,874,0,0,8,647
875,875,0,0,8,647
876,876,0,0,8,647
877,877,0,0,8,647
878,878,0,0,8,647
879,879,0,0,8,647
880,880,0,0,8,647
881,881,0,0,8,647
882,882,0,0,8,647
883,883,0,0,8,647
884,884,0,0,8,647
885,885,0,0,8,647
886,886,0,0,8,647
887,887,0,0,8,647
888,888,0,0,8,647
889,889,0,0,8,647
890,890,0,0,8,647
891,891,0,0,8,647
892,892,0,0,8,647
893,893,0,0,8,647
894,894,0,0,8,647
895,895,0,0,8,647
896,896,0,0,8,647
897,897,0,0,8,647
898,898,0,0,8,647
899,899,0,0,8,647
900,900,0,0,8,647
901,901,0,0,8,647
902,902,0,0,8,647
903,903,0,0,8,647
904,904,0,0,8,647
905,905,0,0,8,647
906,906,0,0,8,647
907,907,0,0,8,647
908,908,0,0,8,647
909,909,0,0,8,647
910,910,0,0,8,647
911,911,0,0,8,647
912,912,0,0,8,647
913,913,0,0,8,647
914,914,0,0,8,647
915,915,0,0,8,647
916,916,0,0,8,647
917,917,0,0,8,647
918,918,0,0,8,647
919,919,0,0,8,647
920,920,0,0,8,647
921,921,0,0,8,647
922,922,0,0,8,647
923,923,0,0,8,647
924,924,0,0,8,647
925,925,0,0,8,647
926,926,0,0,8,647
927,927,0,0,8,647
928,928,0,0,8,647
929,929,0,0,8,647
930,930,0,0,8,647
931,931,0,0,8,647
932,932,0,0,8,647
933,933,0,0,8,647
934,934,0,0,8,647
935,935,0,0,8,647
936,936,0,0,8,647
937,937,0,0,8,647
938,938,0,0,8,647
939,939,0,0,8,647
940,940,0,0,8,647
941,941,0,1,6,647
942,942,0,0,6,647
943,943,0,0,6,647
944,944,0,0,6,647
945,945,0,0,6,647
946,946,0,0,6,647
947,947,0,0,6,647
948,948,0,0,6,647
949,949,0,0,6,647
950,950,0,0,6,647
951,951,0,0,6,647
952,952,0,0,6,647
953,953,0,0,6,647
954,954,0,0,6,647
955,955,0,0,6,647
956,956,0,0,6,647
957,957,0,0,6,647
958,958,0,0,6,647
959,959,0,0,6,647
960,960,0,0,6,647
961,961,0,0,6,647
962,962,0,0,6,647
963,963,0,0,6,647
964,964,0,0,6,647
965,965,0,0,6,647
966,966,0,0,6,647
967,967,0,0,6,647
968,968,0,0,6,647
969,969,0,0,6,647
970,970,0,0,6,647
971,971,0,0,6,647
972,972,0,0,6,647
973,973,0,0,6,647
974,974,0,0,6,647
975,975,0,0,6,647
976,976,0,0,6,647
977,977,0,0,6,647
978,978,0,0,6,647
979,979,0,0,6,647
980,980,0,0,6,647
981,981,0,0,6,647
982,982,0,0,6,647
983,983,0,0,6,647
984,984,0,0,6,647
985,985,0,0,6,647
986,986,0,0,6,647
987,987,0,0,6,647
988,988,0,0,6,647
989,989,0,0,6,647
990,990,0,0,6,647
991,991,0,0,6,647
992,992,0,0,6,647
993,993,0,0,6,647
994,994,0,0,6,647
995,995,0,0,6,647
996,996,0,0,6,647
997,997,0,0,6,647
998,998,0,0,6,647
999,999,0,0,6,647
1000,1000,0,0,6,647
1001,1001,0,0,6,647
1002,1002,0,0,6,647
1003,1003,0,0,6,647
1004,1004,0,0,6,647
1005,1005,0,0,6,647
1006,1006,0,0,6,647
1007,1007,0,0,6,647
1008,1008,0,0,6,647
1009,1009,0,0,6,647
1010,1010,0,0,6,647
1011,1011,0,0,6,647
1012,1012,0,0,6,647
1013,1013,0,0,6,647
1014,1014,0,0,6,647
1015,1015,0,0,6,647
1016,1016,0,0,6,647
1017,1017,0,0,6,647
1018,1018,0,0,6,647
1019,1019,0,0,6,647
1020,1020,0,0,6,647
1021,1021,0,0,6,647
1022,1022,0,0,6,647
1023,1023,0,0,6,647
1024,1024,0,0,6,647
1025,1025,0,0,6,647
1026,1026,0,0,6,647
1027,1027,0,0,6,647
1028,1028,0,0,6,647
1029,1029,0,0,6,647
1030,1030,0,0,6,647
1031,1031,0,0,6,647
1032,1032,0,0,6,647
1033,1033,0,0,6,647
1034,1034,0,0,6,647
1035,1035,0,0,6,647
1036,1036,0,0,6,647
1037,1037,0,0,6,647
1038,1038,0,0,6,647
1039,1039,0,0,6,647
1040,1040,0,0,6,647
1041,1041,0,0,6,647
1042,1042,0,0,6,647
1043,1043,0,0,6,647
1044,1044,0,0,6,647
1045,1045,0,0,6,647
1046,1046,0,0,6,647
1047,1047,0,0,6,647
1048,1048,0,0,6,647
1049,1049,0,0,6,647
1050,1050,0,0,6,647
1051,1051,0,0,6,647
1052,1052,0,0,6,647
1053,1053,0,0,6,647
1054,1054,0,0,6,647
1055,1055,0,0,6,647
1056,1056,0,0,6,647
1057,1057,0,0,6,647
1058,1058,0,0,6,647
1059,1059,0,0,6,647
1060,1060,0,0,6,647
1061,1061,0,0,6,647
1062,1062,0,0,6,647
1063,1063,0,0,6,647
1064,1064,0,0,6,647
1065,1065,0,0,6,647
1066,1066,0,0,6,647
1067,1067,0,0,6,647
1068,1068,0,0,6,647
1069,1069,0,0,6,647
1070,1070,0,0,6,647
1071,1071,0,0,6,647
1072,1072,0,0,6,647
1073,1073,0,0,6,647
1074,1074,0,0,6,647
1075,1075,0,0,6,647
1076,1076,0,0,6,647
1077,1077,0,0,6,647
1078,1078,0,0,6,647
1079,1079,0,0,6,647
1080,1080,0,0,6,647
1081,1081,0,0,6,647
1082,1082,0,0,6,647
1083,1083,0,0,6,647
1084,1084,0,1,5,647
1085,1085,0,0,5,647
1086,1086,0,0,5,647
1087,1087,0,0,5,647
1088,1088,0,0,5,647
1089,1089,0,0,5,647
1090,1090,0,0,5,647
1091,1091,0,0,5,647
1092,1092,0,0,5,647
1093,1093,0,0,5,647
